date Wed Nov 25 02:45:56.512 pm 2015
base hex  timestamps absolute
internal events logged
// version 8.5.0
   0.001615 CAN 1 Status:chip status error active
   0.001704 CAN 2 Status:chip status error active
   1.002592 CAN 1 Status:chip status error active
   1.002778 CAN 2 Status:chip status error active
   2.002756 CAN 1 Status:chip status error active
   2.003103 CAN 2 Status:chip status error active
   3.002780 CAN 1 Status:chip status error active
   3.002999 CAN 2 Status:chip status error active
   3.083251 2  ErrorFrame	ECC: 11011001
   3.083251 CAN 2 Status:chip status error active  - TxErr: 8 RxErr: 0
   3.084155 2  ErrorFrame	ECC: 11011001
   3.084155 CAN 2 Status:chip status error active  - TxErr: 16 RxErr: 0
   3.085059 2  ErrorFrame	ECC: 11011001
   3.085059 CAN 2 Status:chip status error active  - TxErr: 24 RxErr: 0
   3.085963 2  ErrorFrame	ECC: 11011001
   3.085963 CAN 2 Status:chip status error active  - TxErr: 32 RxErr: 0
   3.086867 2  ErrorFrame	ECC: 11011001
   3.086867 CAN 2 Status:chip status error active  - TxErr: 40 RxErr: 0
   3.087771 2  ErrorFrame	ECC: 11011001
   3.087771 CAN 2 Status:chip status error active  - TxErr: 48 RxErr: 0
   3.088675 2  ErrorFrame	ECC: 11011001
   3.088675 CAN 2 Status:chip status error active  - TxErr: 56 RxErr: 0
   3.089579 2  ErrorFrame	ECC: 11011001
   3.089579 CAN 2 Status:chip status error active  - TxErr: 64 RxErr: 0
   3.090483 2  ErrorFrame	ECC: 11011001
   3.090483 CAN 2 Status:chip status error active  - TxErr: 72 RxErr: 0
   3.091387 2  ErrorFrame	ECC: 11011001
   3.091387 CAN 2 Status:chip status error active  - TxErr: 80 RxErr: 0
   3.092291 2  ErrorFrame	ECC: 11011001
   3.092291 CAN 2 Status:chip status error active  - TxErr: 88 RxErr: 0
   3.093195 2  ErrorFrame	ECC: 11011001
   3.093195 CAN 2 Status:chip status warning level - TxErr: 96 RxErr: 0
   3.093195 CAN 2 Status:chip status warning level - TxErr: 96 RxErr: 0
   3.094099 2  ErrorFrame	ECC: 11011001
   3.094099 CAN 2 Status:chip status warning level - TxErr: 104 RxErr: 0
   3.095003 2  ErrorFrame	ECC: 11011001
   3.095003 CAN 2 Status:chip status warning level - TxErr: 112 RxErr: 0
   3.095907 2  ErrorFrame	ECC: 11011001
   3.095907 CAN 2 Status:chip status warning level - TxErr: 120 RxErr: 0
   3.096811 2  ErrorFrame	ECC: 11011001
   3.096811 CAN 2 Status:chip status error passive - TxErr: 128 RxErr: 0
   3.096811 CAN 2 Status:chip status error passive - TxErr: 128 RxErr: 0
   3.097779 2  ErrorFrame	ECC: 11011001
   3.097779 CAN 2 Status:chip status error passive - TxErr: 128 RxErr: 0
   3.098747 2  ErrorFrame	ECC: 11011001
   3.098747 CAN 2 Status:chip status error passive - TxErr: 128 RxErr: 0
   3.099715 2  ErrorFrame	ECC: 11011001
   3.099715 CAN 2 Status:chip status error passive - TxErr: 128 RxErr: 0
   3.100683 2  ErrorFrame	ECC: 11011001
   3.100683 CAN 2 Status:chip status error passive - TxErr: 128 RxErr: 0
   3.101651 2  ErrorFrame	ECC: 11011001
   3.101651 CAN 2 Status:chip status error passive - TxErr: 128 RxErr: 0
   3.102619 2  ErrorFrame	ECC: 11011001
   3.102619 CAN 2 Status:chip status error passive - TxErr: 128 RxErr: 0
   3.103587 2  ErrorFrame	ECC: 11011001
   3.103587 CAN 2 Status:chip status error passive - TxErr: 128 RxErr: 0
   3.104555 2  ErrorFrame	ECC: 11011001
   3.104555 CAN 2 Status:chip status error passive - TxErr: 128 RxErr: 0
   3.105523 2  ErrorFrame	ECC: 11011001
   3.105523 CAN 2 Status:chip status error passive - TxErr: 128 RxErr: 0
   3.106491 2  ErrorFrame	ECC: 11011001
   3.106491 CAN 2 Status:chip status error passive - TxErr: 128 RxErr: 0
   3.107459 2  ErrorFrame	ECC: 11011001
   3.107459 CAN 2 Status:chip status error passive - TxErr: 128 RxErr: 0
   3.108427 2  ErrorFrame	ECC: 11011001
   3.108427 CAN 2 Status:chip status error passive - TxErr: 128 RxErr: 0
   3.109395 2  ErrorFrame	ECC: 11011001
   3.109395 CAN 2 Status:chip status error passive - TxErr: 128 RxErr: 0
   3.110363 2  ErrorFrame	ECC: 11011001
   3.110363 CAN 2 Status:chip status error passive - TxErr: 128 RxErr: 0
   3.111331 2  ErrorFrame	ECC: 11011001
   3.111331 CAN 2 Status:chip status error passive - TxErr: 128 RxErr: 0
   3.112299 2  ErrorFrame	ECC: 11011001
   3.112299 CAN 2 Status:chip status error passive - TxErr: 128 RxErr: 0
   3.113331 2  700             Tx   d 6 00 02 00 00 00 00  Length = 832000 BitCount = 107 ID = 1792
   3.113331 CAN 2 Status:chip status warning level - TxErr: 127 RxErr: 0
   3.120778 2  712             Rx   d 2 00 02  Length = 504000 BitCount = 67 ID = 1810
   3.177242 2  2A0             Tx   d 4 00 00 00 00  Length = 680000 BitCount = 88 ID = 672
   3.196249 2  3D2             Rx   d 8 00 00 00 00 00 04 00 00  Length = 952000 BitCount = 123 ID = 978
   3.261791 2  5B2             Rx   d 2 00 00  Length = 504000 BitCount = 67 ID = 1458
   3.277231 2  2A0             Tx   d 4 00 00 00 00  Length = 680000 BitCount = 88 ID = 672
   3.327623 2  380             Tx   d 8 00 00 00 00 00 00 00 00  Length = 1000000 BitCount = 128 ID = 896
   3.361790 2  5B2             Rx   d 2 00 00  Length = 504000 BitCount = 67 ID = 1458
   3.377206 2  2A0             Tx   d 4 00 00 00 00  Length = 680000 BitCount = 88 ID = 672
   3.456235 2  3D2             Rx   d 8 00 00 00 00 00 0C 00 00  Length = 952000 BitCount = 123 ID = 978
   3.461786 2  5B2             Rx   d 2 00 00  Length = 504000 BitCount = 67 ID = 1458
   3.477241 2  2A0             Tx   d 4 00 00 00 00  Length = 680000 BitCount = 88 ID = 672
   3.561783 2  5B2             Rx   d 2 00 00  Length = 504000 BitCount = 67 ID = 1458
   3.577502 2  380             Tx   d 8 00 00 00 00 00 00 00 00  Length = 1000000 BitCount = 128 ID = 896
   3.578213 2  2A0             Tx   d 4 00 00 00 00  Length = 680000 BitCount = 88 ID = 672
   3.656235 2  3D2             Rx   d 8 00 00 00 00 00 04 00 00  Length = 952000 BitCount = 123 ID = 978
   3.661778 2  5B2             Rx   d 2 00 00  Length = 504000 BitCount = 67 ID = 1458
   3.663234 2  3D2             Rx   d 8 00 00 00 00 00 04 00 00  Length = 952000 BitCount = 123 ID = 978
   3.677153 2  2A0             Tx   d 4 00 00 00 00  Length = 680000 BitCount = 88 ID = 672
   3.761775 2  5B2             Rx   d 2 00 00  Length = 504000 BitCount = 67 ID = 1458
   3.777151 2  2A0             Tx   d 4 00 00 00 00  Length = 680000 BitCount = 88 ID = 672
   3.827471 2  380             Tx   d 8 00 00 00 00 00 00 00 00  Length = 1000000 BitCount = 128 ID = 896
   3.856230 2  3D2             Rx   d 8 00 00 00 00 00 0C 00 00  Length = 952000 BitCount = 123 ID = 978
   3.861773 2  5B2             Rx   d 2 00 00  Length = 504000 BitCount = 67 ID = 1458
   3.877077 2  2A0             Tx   d 4 00 00 00 00  Length = 680000 BitCount = 88 ID = 672
   3.961770 2  5B2             Rx   d 2 00 00  Length = 504000 BitCount = 67 ID = 1458
   3.977234 2  2A0             Tx   d 4 00 00 00 00  Length = 680000 BitCount = 88 ID = 672
   4.002706 CAN 1 Status:chip status error active
   4.002913 CAN 2 Status:chip status warning level - TxErr: 115 RxErr: 0
   4.061767 2  5B2             Rx   d 2 00 00  Length = 504000 BitCount = 67 ID = 1458
   4.077447 2  700             Tx   d 6 00 02 00 00 00 00  Length = 832000 BitCount = 107 ID = 1792
   4.078479 2  380             Tx   d 8 00 00 00 00 00 00 00 00  Length = 1000000 BitCount = 128 ID = 896
   4.079199 2  2A0             Tx   d 4 00 00 00 00  Length = 680000 BitCount = 88 ID = 672
   4.088790 2  712             Rx   d 2 00 32  Length = 496000 BitCount = 66 ID = 1810
   4.161764 2  5B2             Rx   d 2 00 00  Length = 504000 BitCount = 67 ID = 1458
   4.163220 2  3D2             Rx   d 8 00 00 00 00 00 0C 00 00  Length = 952000 BitCount = 123 ID = 978
   4.177236 2  2A0             Tx   d 4 00 00 00 00  Length = 680000 BitCount = 88 ID = 672
   4.256217 2  3D2             Rx   d 8 00 00 00 00 00 04 00 00  Length = 952000 BitCount = 123 ID = 978
   4.261760 2  5B2             Rx   d 2 00 00  Length = 504000 BitCount = 67 ID = 1458
   4.277256 2  2A0             Tx   d 4 00 00 00 00  Length = 680000 BitCount = 88 ID = 672
   4.327639 2  380             Tx   d 8 00 00 00 00 00 00 00 00  Length = 1000000 BitCount = 128 ID = 896
   4.361758 2  5B2             Rx   d 2 00 00  Length = 504000 BitCount = 67 ID = 1458
   4.377229 2  2A0             Tx   d 4 00 00 00 00  Length = 680000 BitCount = 88 ID = 672
   4.456211 2  3D2             Rx   d 8 00 00 00 00 00 0C 00 00  Length = 952000 BitCount = 123 ID = 978
   4.461754 2  5B2             Rx   d 2 00 00  Length = 504000 BitCount = 67 ID = 1458
   4.477233 2  2A0             Tx   d 4 00 00 00 00  Length = 680000 BitCount = 88 ID = 672
   4.561751 2  5B2             Rx   d 2 00 00  Length = 504000 BitCount = 67 ID = 1458
   4.577615 2  380             Tx   d 8 00 00 00 00 00 00 00 00  Length = 1000000 BitCount = 128 ID = 896
   4.578327 2  2A0             Tx   d 4 00 00 00 00  Length = 680000 BitCount = 88 ID = 672
   4.647439 2  380             Tx   d 8 00 00 40 00 00 00 00 00  Length = 992000 BitCount = 127 ID = 896
   4.656206 2  3D2             Rx   d 8 00 00 00 00 00 04 00 20  Length = 960000 BitCount = 124 ID = 978
   4.661749 2  5B2             Rx   d 2 00 00  Length = 504000 BitCount = 67 ID = 1458
   4.663205 2  3D2             Rx   d 8 00 00 00 00 00 04 00 00  Length = 952000 BitCount = 123 ID = 978
   4.677069 2  2A0             Tx   d 4 00 00 00 00  Length = 680000 BitCount = 88 ID = 672
   4.761746 2  5B2             Rx   d 2 00 00  Length = 504000 BitCount = 67 ID = 1458
   4.777146 2  2A0             Tx   d 4 00 00 00 00  Length = 680000 BitCount = 88 ID = 672
   4.827666 2  380             Tx   d 8 00 00 40 00 00 00 00 00  Length = 992000 BitCount = 127 ID = 896
   4.861737 2  5B2             Rx   d 2 00 00  Length = 504000 BitCount = 67 ID = 1458
   4.877265 2  2A0             Tx   d 4 00 00 00 00  Length = 680000 BitCount = 88 ID = 672
   4.956190 2  3D2             Rx   d 8 00 00 00 00 00 0C 00 00  Length = 952000 BitCount = 123 ID = 978
   4.961734 2  5B2             Rx   d 2 00 00  Length = 504000 BitCount = 67 ID = 1458
   4.977414 2  2A0             Tx   d 4 00 00 00 00  Length = 680000 BitCount = 88 ID = 672
   5.002611 CAN 1 Status:chip status error active
   5.002777 CAN 2 Status:chip status warning level - TxErr: 99 RxErr: 0
   5.061731 2  5B2             Rx   d 2 00 00  Length = 504000 BitCount = 67 ID = 1458
   5.077483 2  700             Tx   d 6 00 02 00 00 00 00  Length = 832000 BitCount = 107 ID = 1792
   5.078515 2  380             Tx   d 8 00 00 40 00 00 00 00 00  Length = 992000 BitCount = 127 ID = 896
   5.079226 2  2A0             Tx   d 4 00 00 00 00  Length = 680000 BitCount = 88 ID = 672
   5.088722 2  712             Rx   d 2 00 32  Length = 496000 BitCount = 66 ID = 1810
   5.156184 2  3D2             Rx   d 8 00 00 00 00 00 04 00 00  Length = 952000 BitCount = 123 ID = 978
   5.161727 2  5B2             Rx   d 2 00 00  Length = 504000 BitCount = 67 ID = 1458
   5.163190 2  3D2             Rx   d 8 00 00 00 00 00 04 00 00  Length = 952000 BitCount = 123 ID = 978
   5.177261 2  2A0             Tx   d 4 00 00 00 00  Length = 680000 BitCount = 88 ID = 672
   5.177261 CAN 2 Status:chip status error active  - TxErr: 95 RxErr: 0
   5.261731 2  5B2             Rx   d 2 00 00  Length = 504000 BitCount = 67 ID = 1458
   5.277154 2  2A0             Tx   d 4 00 00 00 00  Length = 680000 BitCount = 88 ID = 672
   5.327593 2  380             Tx   d 8 00 00 40 00 00 00 00 00  Length = 992000 BitCount = 127 ID = 896
   5.356185 2  3D2             Rx   d 8 00 00 00 00 00 0C 00 00  Length = 952000 BitCount = 123 ID = 978
   5.361728 2  5B2             Rx   d 2 00 00  Length = 504000 BitCount = 67 ID = 1458
   5.377240 2  2A0             Tx   d 4 00 00 00 00  Length = 680000 BitCount = 88 ID = 672
   5.461725 2  5B2             Rx   d 2 00 00  Length = 504000 BitCount = 67 ID = 1458
   5.477189 2  2A0             Tx   d 4 00 00 00 00  Length = 680000 BitCount = 88 ID = 672
   5.561722 2  5B2             Rx   d 2 00 00  Length = 504000 BitCount = 67 ID = 1458
   5.577658 2  380             Tx   d 8 00 00 40 00 00 00 00 00  Length = 992000 BitCount = 127 ID = 896
   5.578370 2  2A0             Tx   d 4 00 00 00 00  Length = 680000 BitCount = 88 ID = 672
   5.656175 2  3D2             Rx   d 8 00 00 00 00 00 04 00 00  Length = 952000 BitCount = 123 ID = 978
   5.661719 2  5B2             Rx   d 2 00 00  Length = 504000 BitCount = 67 ID = 1458
   5.663175 2  3D2             Rx   d 8 00 00 00 00 00 04 00 00  Length = 952000 BitCount = 123 ID = 978
   5.677263 2  2A0             Tx   d 4 00 00 00 00  Length = 680000 BitCount = 88 ID = 672
   5.761716 2  5B2             Rx   d 2 00 00  Length = 504000 BitCount = 67 ID = 1458
   5.777236 2  2A0             Tx   d 4 00 00 00 00  Length = 680000 BitCount = 88 ID = 672
   5.827612 2  380             Tx   d 8 00 00 40 00 00 00 00 00  Length = 992000 BitCount = 127 ID = 896
   5.856163 2  3D2             Rx   d 8 00 00 00 00 00 0C 00 00  Length = 952000 BitCount = 123 ID = 978
   5.861707 2  5B2             Rx   d 2 00 00  Length = 504000 BitCount = 67 ID = 1458
   5.877235 2  2A0             Tx   d 4 00 00 00 00  Length = 680000 BitCount = 88 ID = 672
   5.961704 2  5B2             Rx   d 2 00 00  Length = 504000 BitCount = 67 ID = 1458
   5.977256 2  2A0             Tx   d 4 00 00 00 00  Length = 680000 BitCount = 88 ID = 672
   6.002622 CAN 1 Status:chip status error active
   6.002787 CAN 2 Status:chip status error active  - TxErr: 84 RxErr: 0
   6.061701 2  5B2             Rx   d 2 00 00  Length = 504000 BitCount = 67 ID = 1458
   6.077468 2  700             Tx   d 6 00 02 00 00 00 00  Length = 832000 BitCount = 107 ID = 1792
   6.078499 2  380             Tx   d 8 00 00 40 00 00 00 00 00  Length = 992000 BitCount = 127 ID = 896
   6.079210 2  2A0             Tx   d 4 00 00 00 00  Length = 680000 BitCount = 88 ID = 672
   6.088698 2  712             Rx   d 2 00 32  Length = 496000 BitCount = 66 ID = 1810
   6.161703 2  5B2             Rx   d 2 00 00  Length = 504000 BitCount = 67 ID = 1458
   6.163159 2  3D2             Rx   d 8 00 00 00 00 00 0C 00 00  Length = 952000 BitCount = 123 ID = 978
   6.177230 2  2A0             Tx   d 4 00 00 00 00  Length = 680000 BitCount = 88 ID = 672
   6.261700 2  5B2             Rx   d 2 00 00  Length = 504000 BitCount = 67 ID = 1458
   6.277236 2  2A0             Tx   d 4 00 00 00 00  Length = 680000 BitCount = 88 ID = 672
   6.327588 2  380             Tx   d 8 00 00 40 00 00 00 00 00  Length = 992000 BitCount = 127 ID = 896
   6.361691 2  5B2             Rx   d 2 00 00  Length = 504000 BitCount = 67 ID = 1458
   6.377227 2  2A0             Tx   d 4 00 00 00 00  Length = 680000 BitCount = 88 ID = 672
   6.461688 2  5B2             Rx   d 2 00 00  Length = 504000 BitCount = 67 ID = 1458
   6.477144 2  2A0             Tx   d 4 00 00 00 00  Length = 680000 BitCount = 88 ID = 672
   6.483448 2  380             Tx   d 8 00 04 40 00 00 00 00 00  Length = 984000 BitCount = 126 ID = 896
   6.561685 2  5B2             Rx   d 2 00 00  Length = 504000 BitCount = 67 ID = 1458
   6.577573 2  380             Tx   d 8 00 04 40 00 00 00 00 00  Length = 984000 BitCount = 126 ID = 896
   6.578285 2  2A0             Tx   d 4 00 00 00 00  Length = 680000 BitCount = 88 ID = 672
   6.661682 2  5B2             Rx   d 2 00 00  Length = 504000 BitCount = 67 ID = 1458
   6.663138 2  3D2             Rx   d 8 00 00 00 00 00 0C 00 00  Length = 952000 BitCount = 123 ID = 978
   6.677234 2  2A0             Tx   d 4 00 00 00 00  Length = 680000 BitCount = 88 ID = 672
   6.761679 2  5B2             Rx   d 2 00 00  Length = 504000 BitCount = 67 ID = 1458
   6.777167 2  2A0             Tx   d 4 00 00 00 00  Length = 680000 BitCount = 88 ID = 672
   6.827494 2  380             Tx   d 8 00 04 40 00 00 00 00 00  Length = 984000 BitCount = 126 ID = 896
   6.861677 2  5B2             Rx   d 2 00 00  Length = 504000 BitCount = 67 ID = 1458
   6.877308 2  2A0             Tx   d 4 00 00 00 00  Length = 680000 BitCount = 88 ID = 672
   6.961674 2  5B2             Rx   d 2 00 00  Length = 504000 BitCount = 67 ID = 1458
   6.977289 2  2A0             Tx   d 4 00 00 00 00  Length = 680000 BitCount = 88 ID = 672
   7.002548 CAN 1 Status:chip status error active
   7.002672 CAN 2 Status:chip status error active  - TxErr: 68 RxErr: 0
   7.061671 2  5B2             Rx   d 2 00 00  Length = 504000 BitCount = 67 ID = 1458
   7.077383 2  700             Tx   d 6 00 02 00 00 00 00  Length = 832000 BitCount = 107 ID = 1792
   7.078399 2  380             Tx   d 8 00 04 40 00 00 00 00 00  Length = 984000 BitCount = 126 ID = 896
   7.079111 2  2A0             Tx   d 4 00 00 00 00  Length = 680000 BitCount = 88 ID = 672
   7.088695 2  712             Rx   d 2 00 32  Length = 496000 BitCount = 66 ID = 1810
   7.161668 2  5B2             Rx   d 2 00 00  Length = 504000 BitCount = 67 ID = 1458
   7.163124 2  3D2             Rx   d 8 00 00 00 00 00 0C 00 00  Length = 952000 BitCount = 123 ID = 978
   7.177308 2  2A0             Tx   d 4 00 00 00 00  Length = 680000 BitCount = 88 ID = 672
   7.261665 2  5B2             Rx   d 2 00 00  Length = 504000 BitCount = 67 ID = 1458
   7.277265 2  2A0             Tx   d 4 00 00 00 00  Length = 680000 BitCount = 88 ID = 672
   7.327513 2  380             Tx   d 8 00 04 40 00 00 00 00 00  Length = 984000 BitCount = 126 ID = 896
   7.361664 2  5B2             Rx   d 2 00 00  Length = 504000 BitCount = 67 ID = 1458
   7.377280 2  2A0             Tx   d 4 00 00 00 00  Length = 680000 BitCount = 88 ID = 672
   7.461661 2  5B2             Rx   d 2 00 00  Length = 504000 BitCount = 67 ID = 1458
   7.477237 2  2A0             Tx   d 4 00 00 00 00  Length = 680000 BitCount = 88 ID = 672
   7.561658 2  5B2             Rx   d 2 00 00  Length = 504000 BitCount = 67 ID = 1458
   7.577610 2  380             Tx   d 8 00 04 40 00 00 00 00 00  Length = 984000 BitCount = 126 ID = 896
   7.578322 2  2A0             Tx   d 4 00 00 00 00  Length = 680000 BitCount = 88 ID = 672
   7.661655 2  5B2             Rx   d 2 00 00  Length = 504000 BitCount = 67 ID = 1458
   7.663110 2  3D2             Rx   d 8 00 00 00 00 00 0C 00 00  Length = 952000 BitCount = 123 ID = 978
   7.677342 2  2A0             Tx   d 4 00 00 00 00  Length = 680000 BitCount = 88 ID = 672
   7.761651 2  5B2             Rx   d 2 00 00  Length = 504000 BitCount = 67 ID = 1458
   7.777226 2  2A0             Tx   d 4 00 00 00 00  Length = 680000 BitCount = 88 ID = 672
   7.827585 2  380             Tx   d 8 00 04 40 00 00 00 00 00  Length = 984000 BitCount = 126 ID = 896
   7.861648 2  5B2             Rx   d 2 00 00  Length = 504000 BitCount = 67 ID = 1458
   7.877279 2  2A0             Tx   d 4 00 00 00 00  Length = 680000 BitCount = 88 ID = 672
   7.961645 2  5B2             Rx   d 2 00 00  Length = 504000 BitCount = 67 ID = 1458
   7.977149 2  2A0             Tx   d 4 00 00 00 00  Length = 680000 BitCount = 88 ID = 672
   8.002411 CAN 1 Status:chip status error active
   8.002538 CAN 2 Status:chip status error active  - TxErr: 53 RxErr: 0
   8.061642 2  5B2             Rx   d 2 00 00  Length = 504000 BitCount = 67 ID = 1458
   8.077306 2  700             Tx   d 6 00 02 00 00 00 00  Length = 832000 BitCount = 107 ID = 1792
   8.078322 2  380             Tx   d 8 00 04 40 00 00 00 00 00  Length = 984000 BitCount = 126 ID = 896
   8.079034 2  2A0             Tx   d 4 00 00 00 00  Length = 680000 BitCount = 88 ID = 672
   8.088665 2  712             Rx   d 2 00 32  Length = 496000 BitCount = 66 ID = 1810
   8.161638 2  5B2             Rx   d 2 00 00  Length = 504000 BitCount = 67 ID = 1458
   8.163094 2  3D2             Rx   d 8 00 00 00 00 00 0C 00 00  Length = 952000 BitCount = 123 ID = 978
   8.177126 2  2A0             Tx   d 4 00 00 00 00  Length = 680000 BitCount = 88 ID = 672
   8.261635 2  5B2             Rx   d 2 00 00  Length = 504000 BitCount = 67 ID = 1458
   8.277147 2  2A0             Tx   d 4 00 00 00 00  Length = 680000 BitCount = 88 ID = 672
   8.327451 2  380             Tx   d 8 00 04 40 00 00 00 00 00  Length = 984000 BitCount = 126 ID = 896
   8.361634 2  5B2             Rx   d 2 00 00  Length = 504000 BitCount = 67 ID = 1458
   8.377146 2  2A0             Tx   d 4 00 00 00 00  Length = 680000 BitCount = 88 ID = 672
   8.461631 2  5B2             Rx   d 2 00 00  Length = 504000 BitCount = 67 ID = 1458
   8.477167 2  2A0             Tx   d 4 00 00 00 00  Length = 680000 BitCount = 88 ID = 672
   8.561628 2  5B2             Rx   d 2 00 00  Length = 504000 BitCount = 67 ID = 1458
   8.577459 2  380             Tx   d 8 00 04 40 00 00 00 00 00  Length = 984000 BitCount = 126 ID = 896
   8.578170 2  2A0             Tx   d 4 00 00 00 00  Length = 680000 BitCount = 88 ID = 672
   8.661624 2  5B2             Rx   d 2 00 00  Length = 504000 BitCount = 67 ID = 1458
   8.663079 2  3D2             Rx   d 8 00 00 00 00 00 0C 00 00  Length = 952000 BitCount = 123 ID = 978
   8.677142 2  2A0             Tx   d 4 00 00 00 00  Length = 680000 BitCount = 88 ID = 672
   8.761620 2  5B2             Rx   d 2 00 00  Length = 504000 BitCount = 67 ID = 1458
   8.777100 2  2A0             Tx   d 4 00 00 00 00  Length = 680000 BitCount = 88 ID = 672
   8.827468 2  380             Tx   d 8 00 04 40 00 00 00 00 00  Length = 984000 BitCount = 126 ID = 896
   8.861619 2  5B2             Rx   d 2 00 00  Length = 504000 BitCount = 67 ID = 1458
   8.877267 2  2A0             Tx   d 4 00 00 00 00  Length = 680000 BitCount = 88 ID = 672
   8.961616 2  5B2             Rx   d 2 00 00  Length = 504000 BitCount = 67 ID = 1458
   8.977160 2  2A0             Tx   d 4 00 00 00 00  Length = 680000 BitCount = 88 ID = 672
   9.002443 CAN 1 Status:chip status error active
   9.002560 CAN 2 Status:chip status error active  - TxErr: 38 RxErr: 0
   9.061613 2  5B2             Rx   d 2 00 00  Length = 504000 BitCount = 67 ID = 1458
   9.077317 2  700             Tx   d 6 00 02 00 00 00 00  Length = 832000 BitCount = 107 ID = 1792
   9.078333 2  380             Tx   d 8 00 04 40 00 00 00 00 00  Length = 984000 BitCount = 126 ID = 896
   9.079045 2  2A0             Tx   d 4 00 00 00 00  Length = 680000 BitCount = 88 ID = 672
   9.088636 2  712             Rx   d 2 00 32  Length = 496000 BitCount = 66 ID = 1810
   9.161610 2  5B2             Rx   d 2 00 00  Length = 504000 BitCount = 67 ID = 1458
   9.163066 2  3D2             Rx   d 8 00 00 00 00 00 0C 00 00  Length = 952000 BitCount = 123 ID = 978
   9.177162 2  2A0             Tx   d 4 00 00 00 00  Length = 680000 BitCount = 88 ID = 672
   9.261607 2  5B2             Rx   d 2 00 00  Length = 504000 BitCount = 67 ID = 1458
   9.277135 2  2A0             Tx   d 4 00 00 00 00  Length = 680000 BitCount = 88 ID = 672
   9.327695 2  380             Tx   d 8 00 04 40 00 00 00 00 00  Length = 984000 BitCount = 126 ID = 896
   9.361605 2  5B2             Rx   d 2 00 00  Length = 504000 BitCount = 67 ID = 1458
   9.377205 2  2A0             Tx   d 4 00 00 00 00  Length = 680000 BitCount = 88 ID = 672
   9.461602 2  5B2             Rx   d 2 00 00  Length = 504000 BitCount = 67 ID = 1458
   9.477257 2  2A0             Tx   d 4 00 00 00 00  Length = 680000 BitCount = 88 ID = 672
   9.561599 2  5B2             Rx   d 2 00 00  Length = 504000 BitCount = 67 ID = 1458
   9.577687 2  380             Tx   d 8 00 04 40 00 00 00 00 00  Length = 984000 BitCount = 126 ID = 896
   9.578399 2  2A0             Tx   d 4 00 00 00 00  Length = 680000 BitCount = 88 ID = 672
   9.661596 2  5B2             Rx   d 2 00 00  Length = 504000 BitCount = 67 ID = 1458
   9.663052 2  3D2             Rx   d 8 00 00 00 00 00 0C 00 00  Length = 952000 BitCount = 123 ID = 978
   9.677276 2  2A0             Tx   d 4 00 00 00 00  Length = 680000 BitCount = 88 ID = 672
   9.761593 2  5B2             Rx   d 2 00 00  Length = 504000 BitCount = 67 ID = 1458
   9.777201 2  2A0             Tx   d 4 00 00 00 00  Length = 680000 BitCount = 88 ID = 672
   9.827529 2  380             Tx   d 8 00 04 40 00 00 00 00 00  Length = 984000 BitCount = 126 ID = 896
   9.861584 2  5B2             Rx   d 2 00 00  Length = 504000 BitCount = 67 ID = 1458
   9.877240 2  2A0             Tx   d 4 00 00 00 00  Length = 680000 BitCount = 88 ID = 672
   9.961581 2  5B2             Rx   d 2 00 00  Length = 504000 BitCount = 67 ID = 1458
   9.977149 2  2A0             Tx   d 4 00 00 00 00  Length = 680000 BitCount = 88 ID = 672
  10.002607 CAN 1 Status:chip status error active
  10.002765 CAN 2 Status:chip status error active  - TxErr: 23 RxErr: 0
  10.043541 2  18DA1AF1x       Tx   d 3 02 10 60  Length = 0 BitCount = 95 ID = 416946929x  // 2  OTP(01) Atom F1->1A : SF Length:   02         [ 10 60 ]
  10.050364 2  18DAF11Ax       Rx   d 7 06 50 60 00 32 01 F4  Length = 0 BitCount = 131 ID = 417001754x  // 2  OTP(02) Atom 1A->F1 : SF Length:   06         [ 50 60 00 32 01 F4 ]
  10.053420 2  18DA1AF1x       Tx   d 3 02 10 60  Length = 0 BitCount = 95 ID = 416946929x  // 2  OTP(03) Atom F1->1A : SF Length:   02         [ 10 60 ]
  10.060340 2  18DAF11Ax       Rx   d 7 06 50 60 00 32 01 F4  Length = 0 BitCount = 131 ID = 417001754x  // 2  OTP(04) Atom 1A->F1 : SF Length:   06         [ 50 60 00 32 01 F4 ]
  10.061580 2  5B2             Rx   d 2 00 00  Length = 504000 BitCount = 67 ID = 1458
  10.077412 2  700             Tx   d 6 00 02 00 00 00 00  Length = 832000 BitCount = 107 ID = 1792
  10.078428 2  380             Tx   d 8 00 04 40 00 00 00 00 00  Length = 984000 BitCount = 126 ID = 896
  10.079140 2  2A0             Tx   d 4 00 00 00 00  Length = 680000 BitCount = 88 ID = 672
  10.088603 2  712             Rx   d 2 00 32  Length = 496000 BitCount = 66 ID = 1810
  10.161577 2  5B2             Rx   d 2 00 00  Length = 504000 BitCount = 67 ID = 1458
  10.163032 2  3D2             Rx   d 8 00 00 00 00 00 0C 00 00  Length = 952000 BitCount = 123 ID = 978
  10.177168 2  2A0             Tx   d 4 00 00 00 00  Length = 680000 BitCount = 88 ID = 672
  10.261573 2  5B2             Rx   d 2 00 00  Length = 504000 BitCount = 67 ID = 1458
  10.277252 2  2A0             Tx   d 4 00 00 00 00  Length = 680000 BitCount = 88 ID = 672
  10.327523 2  380             Tx   d 8 00 04 40 00 00 00 00 00  Length = 984000 BitCount = 126 ID = 896
  10.361570 2  5B2             Rx   d 2 00 00  Length = 504000 BitCount = 67 ID = 1458
  10.377217 2  2A0             Tx   d 4 00 00 00 00  Length = 680000 BitCount = 88 ID = 672
  10.461567 2  5B2             Rx   d 2 00 00  Length = 504000 BitCount = 67 ID = 1458
  10.477247 2  2A0             Tx   d 4 00 00 00 00  Length = 680000 BitCount = 88 ID = 672
  10.561564 2  5B2             Rx   d 2 00 00  Length = 504000 BitCount = 67 ID = 1458
  10.577596 2  380             Tx   d 8 00 04 40 00 00 00 00 00  Length = 984000 BitCount = 126 ID = 896
  10.578308 2  2A0             Tx   d 4 00 00 00 00  Length = 680000 BitCount = 88 ID = 672
  10.661561 2  5B2             Rx   d 2 00 00  Length = 504000 BitCount = 67 ID = 1458
  10.663017 2  3D2             Rx   d 8 00 00 00 00 00 0C 00 00  Length = 952000 BitCount = 123 ID = 978
  10.677265 2  2A0             Tx   d 4 00 00 00 00  Length = 680000 BitCount = 88 ID = 672
  10.761558 2  5B2             Rx   d 2 00 00  Length = 504000 BitCount = 67 ID = 1458
  10.777214 2  2A0             Tx   d 4 00 00 00 00  Length = 680000 BitCount = 88 ID = 672
  10.827550 2  380             Tx   d 8 00 04 40 00 00 00 00 00  Length = 984000 BitCount = 126 ID = 896
  10.861557 2  5B2             Rx   d 2 00 00  Length = 504000 BitCount = 67 ID = 1458
  10.877269 2  2A0             Tx   d 4 00 00 00 00  Length = 680000 BitCount = 88 ID = 672
  10.961554 2  5B2             Rx   d 2 00 00  Length = 504000 BitCount = 67 ID = 1458
  10.977266 2  2A0             Tx   d 4 00 00 00 00  Length = 680000 BitCount = 88 ID = 672
  11.002631 CAN 1 Status:chip status error active
  11.002797 CAN 2 Status:chip status error active  - TxErr: 6 RxErr: 0
  11.061551 2  5B2             Rx   d 2 00 00  Length = 504000 BitCount = 67 ID = 1458
  11.077414 2  700             Tx   d 6 00 02 00 00 00 00  Length = 832000 BitCount = 107 ID = 1792
  11.078429 2  380             Tx   d 8 00 04 40 00 00 00 00 00  Length = 984000 BitCount = 126 ID = 896
  11.079140 2  2A0             Tx   d 4 00 00 00 00  Length = 680000 BitCount = 88 ID = 672
  11.088572 2  712             Rx   d 2 00 32  Length = 496000 BitCount = 66 ID = 1810
  11.161545 2  5B2             Rx   d 2 00 00  Length = 504000 BitCount = 67 ID = 1458
  11.163000 2  3D2             Rx   d 8 00 00 00 00 00 0C 00 00  Length = 952000 BitCount = 123 ID = 978
  11.177263 2  2A0             Tx   d 4 00 00 00 00  Length = 680000 BitCount = 88 ID = 672
  11.261541 2  5B2             Rx   d 2 00 00  Length = 504000 BitCount = 67 ID = 1458
  11.277204 2  2A0             Tx   d 4 00 00 00 00  Length = 680000 BitCount = 88 ID = 672
  11.327652 2  380             Tx   d 8 00 04 40 00 00 00 00 00  Length = 984000 BitCount = 126 ID = 896
  11.361539 2  5B2             Rx   d 2 00 00  Length = 504000 BitCount = 67 ID = 1458
  11.377283 2  2A0             Tx   d 4 00 00 00 00  Length = 680000 BitCount = 88 ID = 672
  11.461536 2  5B2             Rx   d 2 00 00  Length = 504000 BitCount = 67 ID = 1458
  11.477264 2  2A0             Tx   d 4 00 00 00 00  Length = 680000 BitCount = 88 ID = 672
  11.561533 2  5B2             Rx   d 2 00 00  Length = 504000 BitCount = 67 ID = 1458
  11.577541 2  380             Tx   d 8 00 04 40 00 00 00 00 00  Length = 984000 BitCount = 126 ID = 896
  11.578253 2  2A0             Tx   d 4 00 00 00 00  Length = 680000 BitCount = 88 ID = 672
  11.661530 2  5B2             Rx   d 2 00 00  Length = 504000 BitCount = 67 ID = 1458
  11.662986 2  3D2             Rx   d 8 00 00 00 00 00 0C 00 00  Length = 952000 BitCount = 123 ID = 978
  11.677258 2  2A0             Tx   d 4 00 00 00 00  Length = 680000 BitCount = 88 ID = 672
  11.761527 2  5B2             Rx   d 2 00 00  Length = 504000 BitCount = 67 ID = 1458
  11.777319 2  2A0             Tx   d 4 00 00 00 00  Length = 680000 BitCount = 88 ID = 672
  11.827487 2  380             Tx   d 8 00 04 40 00 00 00 00 00  Length = 984000 BitCount = 126 ID = 896
  11.861526 2  5B2             Rx   d 2 00 00  Length = 504000 BitCount = 67 ID = 1458
  11.877278 2  2A0             Tx   d 4 00 00 00 00  Length = 680000 BitCount = 88 ID = 672
  11.961523 2  5B2             Rx   d 2 00 00  Length = 504000 BitCount = 67 ID = 1458
  11.977130 2  2A0             Tx   d 4 00 00 00 00  Length = 680000 BitCount = 88 ID = 672
  12.002579 CAN 1 Status:chip status error active
  12.002751 CAN 2 Status:chip status error active
  12.061520 2  5B2             Rx   d 2 00 00  Length = 504000 BitCount = 67 ID = 1458
  12.077599 2  700             Tx   d 6 00 02 00 00 00 00  Length = 832000 BitCount = 107 ID = 1792
  12.078615 2  380             Tx   d 8 00 04 40 00 00 00 00 00  Length = 984000 BitCount = 126 ID = 896
  12.079327 2  2A0             Tx   d 4 00 00 00 00  Length = 680000 BitCount = 88 ID = 672
  12.088543 2  712             Rx   d 2 00 32  Length = 496000 BitCount = 66 ID = 1810
  12.161516 2  5B2             Rx   d 2 00 00  Length = 504000 BitCount = 67 ID = 1458
  12.162972 2  3D2             Rx   d 8 00 00 00 00 00 0C 00 00  Length = 952000 BitCount = 123 ID = 978
  12.177340 2  2A0             Tx   d 4 00 00 00 00  Length = 680000 BitCount = 88 ID = 672
  12.261513 2  5B2             Rx   d 2 00 00  Length = 504000 BitCount = 67 ID = 1458
  12.277217 2  2A0             Tx   d 4 00 00 00 00  Length = 680000 BitCount = 88 ID = 672
  12.327769 2  380             Tx   d 8 00 04 40 00 00 00 00 00  Length = 984000 BitCount = 126 ID = 896
  12.361512 2  5B2             Rx   d 2 00 00  Length = 504000 BitCount = 67 ID = 1458
  12.377312 2  2A0             Tx   d 4 00 00 00 00  Length = 680000 BitCount = 88 ID = 672
  12.461509 2  5B2             Rx   d 2 00 00  Length = 504000 BitCount = 67 ID = 1458
  12.477253 2  2A0             Tx   d 4 00 00 00 00  Length = 680000 BitCount = 88 ID = 672
  12.561506 2  5B2             Rx   d 2 00 00  Length = 504000 BitCount = 67 ID = 1458
  12.577498 2  380             Tx   d 8 00 04 40 00 00 00 00 00  Length = 984000 BitCount = 126 ID = 896
  12.578210 2  2A0             Tx   d 4 00 00 00 00  Length = 680000 BitCount = 88 ID = 672
  12.661503 2  5B2             Rx   d 2 00 00  Length = 504000 BitCount = 67 ID = 1458
  12.662958 2  3D2             Rx   d 8 00 00 00 00 00 0C 00 00  Length = 952000 BitCount = 123 ID = 978
  12.677190 2  2A0             Tx   d 4 00 00 00 00  Length = 680000 BitCount = 88 ID = 672
  12.761499 2  5B2             Rx   d 2 00 00  Length = 504000 BitCount = 67 ID = 1458
  12.777211 2  2A0             Tx   d 4 00 00 00 00  Length = 680000 BitCount = 88 ID = 672
  12.827634 2  380             Tx   d 8 00 04 40 00 00 00 00 00  Length = 984000 BitCount = 126 ID = 896
  12.861497 2  5B2             Rx   d 2 00 00  Length = 504000 BitCount = 67 ID = 1458
  12.877328 2  2A0             Tx   d 4 00 00 00 00  Length = 680000 BitCount = 88 ID = 672
  12.961494 2  5B2             Rx   d 2 00 00  Length = 504000 BitCount = 67 ID = 1458
  12.977117 2  2A0             Tx   d 4 00 00 00 00  Length = 680000 BitCount = 88 ID = 672
  13.002463 CAN 1 Status:chip status error active
  13.002571 CAN 2 Status:chip status error active
  13.061491 2  5B2             Rx   d 2 00 00  Length = 504000 BitCount = 67 ID = 1458
  13.077387 2  700             Tx   d 6 00 02 00 00 00 00  Length = 832000 BitCount = 107 ID = 1792
  13.078403 2  380             Tx   d 8 00 04 40 00 00 00 00 00  Length = 984000 BitCount = 126 ID = 896
  13.079115 2  2A0             Tx   d 4 00 00 00 00  Length = 680000 BitCount = 88 ID = 672
  13.088514 2  712             Rx   d 2 00 32  Length = 496000 BitCount = 66 ID = 1810
  13.161487 2  5B2             Rx   d 2 00 00  Length = 504000 BitCount = 67 ID = 1458
  13.162943 2  3D2             Rx   d 8 00 00 00 00 00 0C 00 00  Length = 952000 BitCount = 123 ID = 978
  13.177287 2  2A0             Tx   d 4 00 00 00 00  Length = 680000 BitCount = 88 ID = 672
  13.261484 2  5B2             Rx   d 2 00 00  Length = 504000 BitCount = 67 ID = 1458
  13.277284 2  2A0             Tx   d 4 00 00 00 00  Length = 680000 BitCount = 88 ID = 672
  13.327564 2  380             Tx   d 8 00 04 40 00 00 00 00 00  Length = 984000 BitCount = 126 ID = 896
  13.361483 2  5B2             Rx   d 2 00 00  Length = 504000 BitCount = 67 ID = 1458
  13.377259 2  2A0             Tx   d 4 00 00 00 00  Length = 680000 BitCount = 88 ID = 672
  13.461480 2  5B2             Rx   d 2 00 00  Length = 504000 BitCount = 67 ID = 1458
  13.477304 2  2A0             Tx   d 4 00 00 00 00  Length = 680000 BitCount = 88 ID = 672
  13.561477 2  5B2             Rx   d 2 00 00  Length = 504000 BitCount = 67 ID = 1458
  13.577541 2  380             Tx   d 8 00 04 40 00 00 00 00 00  Length = 984000 BitCount = 126 ID = 896
  13.578253 2  2A0             Tx   d 4 00 00 00 00  Length = 680000 BitCount = 88 ID = 672
  13.661474 2  5B2             Rx   d 2 00 00  Length = 504000 BitCount = 67 ID = 1458
  13.662929 2  3D2             Rx   d 8 00 00 00 00 00 0C 00 00  Length = 952000 BitCount = 123 ID = 978
  13.677280 2  2A0             Tx   d 4 00 00 00 00  Length = 680000 BitCount = 88 ID = 672
  13.761470 2  5B2             Rx   d 2 00 00  Length = 504000 BitCount = 67 ID = 1458
  13.777205 2  2A0             Tx   d 4 00 00 00 00  Length = 680000 BitCount = 88 ID = 672
  13.827452 2  380             Tx   d 8 00 04 40 00 00 00 00 00  Length = 984000 BitCount = 126 ID = 896
  13.861467 2  5B2             Rx   d 2 00 00  Length = 504000 BitCount = 67 ID = 1458
  13.877235 2  2A0             Tx   d 4 00 00 00 00  Length = 680000 BitCount = 88 ID = 672
  13.961464 2  5B2             Rx   d 2 00 00  Length = 504000 BitCount = 67 ID = 1458
  13.977152 2  2A0             Tx   d 4 00 00 00 00  Length = 680000 BitCount = 88 ID = 672
  14.002390 CAN 1 Status:chip status error active
  14.002510 CAN 2 Status:chip status error active
  14.045360 2  18DA1AF1x       Tx   d 3 02 3E 00  Length = 0 BitCount = 96 ID = 416946929x  // 2  OTP(05) Atom F1->1A : SF Length:   02         [ 3E 00 ]
  14.049928 2  18DAF11Ax       Rx   d 3 02 7E 00  Length = 0 BitCount = 95 ID = 417001754x  // 2  OTP(06) Atom 1A->F1 : SF Length:   02         [ 7E 00 ]
  14.061455 2  5B2             Rx   d 2 00 00  Length = 504000 BitCount = 67 ID = 1458
  14.077655 2  700             Tx   d 6 00 02 00 00 00 00  Length = 832000 BitCount = 107 ID = 1792
  14.078671 2  380             Tx   d 8 00 04 40 00 00 00 00 00  Length = 984000 BitCount = 126 ID = 896
  14.079383 2  2A0             Tx   d 4 00 00 00 00  Length = 680000 BitCount = 88 ID = 672
  14.088478 2  712             Rx   d 2 00 32  Length = 496000 BitCount = 66 ID = 1810
  14.161459 2  5B2             Rx   d 2 00 00  Length = 504000 BitCount = 67 ID = 1458
  14.162915 2  3D2             Rx   d 8 00 00 00 00 00 0C 00 00  Length = 952000 BitCount = 123 ID = 978
  14.177315 2  2A0             Tx   d 4 00 00 00 00  Length = 680000 BitCount = 88 ID = 672
  14.261456 2  5B2             Rx   d 2 00 00  Length = 504000 BitCount = 67 ID = 1458
  14.277168 2  2A0             Tx   d 4 00 00 00 00  Length = 680000 BitCount = 88 ID = 672
  14.327448 2  380             Tx   d 8 00 04 40 00 00 00 00 00  Length = 984000 BitCount = 126 ID = 896
  14.361447 2  5B2             Rx   d 2 00 00  Length = 504000 BitCount = 67 ID = 1458
  14.377167 2  2A0             Tx   d 4 00 00 00 00  Length = 680000 BitCount = 88 ID = 672
  14.461444 2  5B2             Rx   d 2 00 00  Length = 504000 BitCount = 67 ID = 1458
  14.477148 2  2A0             Tx   d 4 00 00 00 00  Length = 680000 BitCount = 88 ID = 672
  14.561441 2  5B2             Rx   d 2 00 00  Length = 504000 BitCount = 67 ID = 1458
  14.577432 2  380             Tx   d 8 00 04 40 00 00 00 00 00  Length = 984000 BitCount = 126 ID = 896
  14.578143 2  2A0             Tx   d 4 00 00 00 00  Length = 680000 BitCount = 88 ID = 672
  14.661437 2  5B2             Rx   d 2 00 00  Length = 504000 BitCount = 67 ID = 1458
  14.662893 2  3D2             Rx   d 8 00 00 00 00 00 0C 00 00  Length = 952000 BitCount = 123 ID = 978
  14.677268 2  2A0             Tx   d 4 00 00 00 00  Length = 680000 BitCount = 88 ID = 672
  14.761434 2  5B2             Rx   d 2 00 00  Length = 504000 BitCount = 67 ID = 1458
  14.777330 2  2A0             Tx   d 4 00 00 00 00  Length = 680000 BitCount = 88 ID = 672
  14.827538 2  380             Tx   d 8 00 04 40 00 00 00 00 00  Length = 984000 BitCount = 126 ID = 896
  14.861433 2  5B2             Rx   d 2 00 00  Length = 504000 BitCount = 67 ID = 1458
  14.877353 2  2A0             Tx   d 4 00 00 00 00  Length = 680000 BitCount = 88 ID = 672
  14.961430 2  5B2             Rx   d 2 00 00  Length = 504000 BitCount = 67 ID = 1458
  14.977262 2  2A0             Tx   d 4 00 00 00 00  Length = 680000 BitCount = 88 ID = 672
  15.002762 CAN 1 Status:chip status error active
  15.003019 CAN 2 Status:chip status error active
  15.061427 2  5B2             Rx   d 2 00 00  Length = 504000 BitCount = 67 ID = 1458
  15.077475 2  700             Tx   d 6 00 02 00 00 00 00  Length = 832000 BitCount = 107 ID = 1792
  15.078499 2  380             Tx   d 8 00 04 40 00 00 00 00 00  Length = 984000 BitCount = 126 ID = 896
  15.079211 2  2A0             Tx   d 4 00 00 00 00  Length = 680000 BitCount = 88 ID = 672
  15.088450 2  712             Rx   d 2 00 32  Length = 496000 BitCount = 66 ID = 1810
  15.161424 2  5B2             Rx   d 2 00 00  Length = 504000 BitCount = 67 ID = 1458
  15.162880 2  3D2             Rx   d 8 00 00 00 00 00 0C 00 00  Length = 952000 BitCount = 123 ID = 978
  15.177208 2  2A0             Tx   d 4 00 00 00 00  Length = 680000 BitCount = 88 ID = 672
  15.261421 2  5B2             Rx   d 2 00 00  Length = 504000 BitCount = 67 ID = 1458
  15.277133 2  2A0             Tx   d 4 00 00 00 00  Length = 680000 BitCount = 88 ID = 672
  15.327460 2  380             Tx   d 8 00 04 40 00 00 00 00 00  Length = 984000 BitCount = 126 ID = 896
  15.361419 2  5B2             Rx   d 2 00 00  Length = 504000 BitCount = 67 ID = 1458
  15.377130 2  2A0             Tx   d 4 00 00 00 00  Length = 680000 BitCount = 88 ID = 672
  15.461416 2  5B2             Rx   d 2 00 00  Length = 504000 BitCount = 67 ID = 1458
  15.477207 2  2A0             Tx   d 4 00 00 00 00  Length = 680000 BitCount = 88 ID = 672
  15.561413 2  5B2             Rx   d 2 00 00  Length = 504000 BitCount = 67 ID = 1458
  15.577645 2  380             Tx   d 8 00 04 40 00 00 00 00 00  Length = 984000 BitCount = 126 ID = 896
  15.578357 2  2A0             Tx   d 4 00 00 00 00  Length = 680000 BitCount = 88 ID = 672
  15.661410 2  5B2             Rx   d 2 00 00  Length = 504000 BitCount = 67 ID = 1458
  15.662866 2  3D2             Rx   d 8 00 00 00 00 00 0C 00 00  Length = 952000 BitCount = 123 ID = 978
  15.677258 2  2A0             Tx   d 4 00 00 00 00  Length = 680000 BitCount = 88 ID = 672
  15.761407 2  5B2             Rx   d 2 00 00  Length = 504000 BitCount = 67 ID = 1458
  15.777183 2  2A0             Tx   d 4 00 00 00 00  Length = 680000 BitCount = 88 ID = 672
  15.827503 2  380             Tx   d 8 00 04 40 00 00 00 00 00  Length = 984000 BitCount = 126 ID = 896
  15.861406 2  5B2             Rx   d 2 00 00  Length = 504000 BitCount = 67 ID = 1458
  15.877254 2  2A0             Tx   d 4 00 00 00 00  Length = 680000 BitCount = 88 ID = 672
  15.961403 2  5B2             Rx   d 2 00 00  Length = 504000 BitCount = 67 ID = 1458
  15.977251 2  2A0             Tx   d 4 00 00 00 00  Length = 680000 BitCount = 88 ID = 672
  16.002556 CAN 1 Status:chip status error active
  16.002722 CAN 2 Status:chip status error active
  16.061400 2  5B2             Rx   d 2 00 00  Length = 504000 BitCount = 67 ID = 1458
  16.077360 2  700             Tx   d 6 00 02 00 00 00 00  Length = 832000 BitCount = 107 ID = 1792
  16.078376 2  380             Tx   d 8 00 04 40 00 00 00 00 00  Length = 984000 BitCount = 126 ID = 896
  16.079088 2  2A0             Tx   d 4 00 00 00 00  Length = 680000 BitCount = 88 ID = 672
  16.088415 2  712             Rx   d 2 00 32  Length = 496000 BitCount = 66 ID = 1810
  16.161396 2  5B2             Rx   d 2 00 00  Length = 504000 BitCount = 67 ID = 1458
  16.162851 2  3D2             Rx   d 8 00 00 00 00 00 0C 00 00  Length = 952000 BitCount = 123 ID = 978
  16.177394 2  2A0             Tx   d 4 00 00 00 00  Length = 680000 BitCount = 88 ID = 672
  16.261392 2  5B2             Rx   d 2 00 00  Length = 504000 BitCount = 67 ID = 1458
  16.277247 2  2A0             Tx   d 4 00 00 00 00  Length = 680000 BitCount = 88 ID = 672
  16.327550 2  380             Tx   d 8 00 04 40 00 00 00 00 00  Length = 984000 BitCount = 126 ID = 896
  16.361389 2  5B2             Rx   d 2 00 00  Length = 504000 BitCount = 67 ID = 1458
  16.377476 2  2A0             Tx   d 4 00 00 00 00  Length = 680000 BitCount = 88 ID = 672
  16.461386 2  5B2             Rx   d 2 00 00  Length = 504000 BitCount = 67 ID = 1458
  16.477250 2  2A0             Tx   d 4 00 00 00 00  Length = 680000 BitCount = 88 ID = 672
  16.561383 2  5B2             Rx   d 2 00 00  Length = 504000 BitCount = 67 ID = 1458
  16.577575 2  380             Tx   d 8 00 04 40 00 00 00 00 00  Length = 984000 BitCount = 126 ID = 896
  16.578287 2  2A0             Tx   d 4 00 00 00 00  Length = 680000 BitCount = 88 ID = 672
  16.661380 2  5B2             Rx   d 2 00 00  Length = 504000 BitCount = 67 ID = 1458
  16.662836 2  3D2             Rx   d 8 00 00 00 00 00 0C 00 00  Length = 952000 BitCount = 123 ID = 978
  16.677372 2  2A0             Tx   d 4 00 00 00 00  Length = 680000 BitCount = 88 ID = 672
  16.761377 2  5B2             Rx   d 2 00 00  Length = 504000 BitCount = 67 ID = 1458
  16.777329 2  2A0             Tx   d 4 00 00 00 00  Length = 680000 BitCount = 88 ID = 672
  16.827537 2  380             Tx   d 8 00 04 40 00 00 00 00 00  Length = 984000 BitCount = 126 ID = 896
  16.861376 2  5B2             Rx   d 2 00 00  Length = 504000 BitCount = 67 ID = 1458
  16.877192 2  2A0             Tx   d 4 00 00 00 00  Length = 680000 BitCount = 88 ID = 672
  16.961373 2  5B2             Rx   d 2 00 00  Length = 504000 BitCount = 67 ID = 1458
  16.977189 2  2A0             Tx   d 4 00 00 00 00  Length = 680000 BitCount = 88 ID = 672
  17.002448 CAN 1 Status:chip status error active
  17.002584 CAN 2 Status:chip status error active
  17.061370 2  5B2             Rx   d 2 00 00  Length = 504000 BitCount = 67 ID = 1458
  17.077345 2  700             Tx   d 6 00 02 00 00 00 00  Length = 832000 BitCount = 107 ID = 1792
  17.078360 2  380             Tx   d 8 00 04 40 00 00 00 00 00  Length = 984000 BitCount = 126 ID = 896
  17.079071 2  2A0             Tx   d 4 00 00 00 00  Length = 680000 BitCount = 88 ID = 672
  17.088391 2  712             Rx   d 2 00 32  Length = 496000 BitCount = 66 ID = 1810
  17.161364 2  5B2             Rx   d 2 00 00  Length = 504000 BitCount = 67 ID = 1458
  17.162819 2  3D2             Rx   d 8 00 00 00 00 00 0C 00 00  Length = 952000 BitCount = 123 ID = 978
  17.177114 2  2A0             Tx   d 4 00 00 00 00  Length = 680000 BitCount = 88 ID = 672
  17.261360 2  5B2             Rx   d 2 00 00  Length = 504000 BitCount = 67 ID = 1458
  17.277208 2  2A0             Tx   d 4 00 00 00 00  Length = 680000 BitCount = 88 ID = 672
  17.327584 2  380             Tx   d 8 00 04 40 00 00 00 00 00  Length = 984000 BitCount = 126 ID = 896
  17.361359 2  5B2             Rx   d 2 00 00  Length = 504000 BitCount = 67 ID = 1458
  17.377319 2  2A0             Tx   d 4 00 00 00 00  Length = 680000 BitCount = 88 ID = 672
  17.403446 2  18DA1AF1x       Tx   d 4 03 22 FD 35  Length = 0 BitCount = 101 ID = 416946929x  // 2  OTP(07) Atom F1->1A : SF Length:   03         [ 22 FD 35 ]
  17.410174 2  18DAF11Ax       Rx   d 8 07 62 FD 35 FF E9 00 00  Length = 0 BitCount = 138 ID = 417001754x  // 2  OTP(08) Atom 1A->F1 : SF Length:   07         [ 62 FD 35 FF E9 00 00 ]
  17.415366 2  18DA1AF1x       Tx   d 4 03 22 FD 35  Length = 0 BitCount = 101 ID = 416946929x  // 2  OTP(09) Atom F1->1A : SF Length:   03         [ 22 FD 35 ]
  17.420181 2  18DAF11Ax       Rx   d 8 07 62 FD 35 FF E9 00 00  Length = 0 BitCount = 138 ID = 417001754x  // 2  OTP(0A) Atom 1A->F1 : SF Length:   07         [ 62 FD 35 FF E9 00 00 ]
  17.423380 2  18DA1AF1x       Tx   d 4 03 22 FD 35  Length = 0 BitCount = 101 ID = 416946929x  // 2  OTP(0B) Atom F1->1A : SF Length:   03         [ 22 FD 35 ]
  17.430140 2  18DAF11Ax       Rx   d 8 07 62 FD 35 FF E9 00 00  Length = 0 BitCount = 138 ID = 417001754x  // 2  OTP(0C) Atom 1A->F1 : SF Length:   07         [ 62 FD 35 FF E9 00 00 ]
  17.435444 2  18DA1AF1x       Tx   d 4 03 22 FD 35  Length = 0 BitCount = 101 ID = 416946929x  // 2  OTP(0D) Atom F1->1A : SF Length:   03         [ 22 FD 35 ]
  17.440139 2  18DAF11Ax       Rx   d 8 07 62 FD 35 FF E9 00 00  Length = 0 BitCount = 138 ID = 417001754x  // 2  OTP(0E) Atom 1A->F1 : SF Length:   07         [ 62 FD 35 FF E9 00 00 ]
  17.443363 2  18DA1AF1x       Tx   d 4 03 22 FD 35  Length = 0 BitCount = 101 ID = 416946929x  // 2  OTP(0F) Atom F1->1A : SF Length:   03         [ 22 FD 35 ]
  17.450171 2  18DAF11Ax       Rx   d 8 07 62 FD 35 FF E9 00 00  Length = 0 BitCount = 138 ID = 417001754x  // 2  OTP(10) Atom 1A->F1 : SF Length:   07         [ 62 FD 35 FF E9 00 00 ]
  17.453538 2  18DA1AF1x       Tx   d 4 03 22 FD 35  Length = 0 BitCount = 101 ID = 416946929x  // 2  OTP(11) Atom F1->1A : SF Length:   03         [ 22 FD 35 ]
  17.460146 2  18DAF11Ax       Rx   d 8 07 62 FD 35 FF E9 00 00  Length = 0 BitCount = 138 ID = 417001754x  // 2  OTP(12) Atom 1A->F1 : SF Length:   07         [ 62 FD 35 FF E9 00 00 ]
  17.461354 2  5B2             Rx   d 2 00 00  Length = 504000 BitCount = 67 ID = 1458
  17.465346 2  18DA1AF1x       Tx   d 4 03 22 FD 35  Length = 0 BitCount = 101 ID = 416946929x  // 2  OTP(13) Atom F1->1A : SF Length:   03         [ 22 FD 35 ]
  17.470137 2  18DAF11Ax       Rx   d 8 07 62 FD 35 FF E9 00 00  Length = 0 BitCount = 138 ID = 417001754x  // 2  OTP(14) Atom 1A->F1 : SF Length:   07         [ 62 FD 35 FF E9 00 00 ]
  17.473361 2  18DA1AF1x       Tx   d 4 03 22 FD 35  Length = 0 BitCount = 101 ID = 416946929x  // 2  OTP(15) Atom F1->1A : SF Length:   03         [ 22 FD 35 ]
  17.477241 2  2A0             Tx   d 4 00 00 00 00  Length = 680000 BitCount = 88 ID = 672
  17.480161 2  18DAF11Ax       Rx   d 8 07 62 FD 35 FF E9 00 00  Length = 0 BitCount = 138 ID = 417001754x  // 2  OTP(16) Atom 1A->F1 : SF Length:   07         [ 62 FD 35 FF E9 00 00 ]
  17.483657 2  18DA1AF1x       Tx   d 4 03 22 FD 35  Length = 0 BitCount = 101 ID = 416946929x  // 2  OTP(17) Atom F1->1A : SF Length:   03         [ 22 FD 35 ]
  17.490192 2  18DAF11Ax       Rx   d 8 07 62 FD 35 FF E9 00 00  Length = 0 BitCount = 138 ID = 417001754x  // 2  OTP(18) Atom 1A->F1 : SF Length:   07         [ 62 FD 35 FF E9 00 00 ]
  17.493424 2  18DA1AF1x       Tx   d 4 03 22 FD 35  Length = 0 BitCount = 101 ID = 416946929x  // 2  OTP(19) Atom F1->1A : SF Length:   03         [ 22 FD 35 ]
  17.500184 2  18DAF11Ax       Rx   d 8 07 62 FD 35 FF E9 00 00  Length = 0 BitCount = 138 ID = 417001754x  // 2  OTP(1A) Atom 1A->F1 : SF Length:   07         [ 62 FD 35 FF E9 00 00 ]
  17.503287 2  18DA1AF1x       Tx   d 4 03 22 FD 35  Length = 0 BitCount = 101 ID = 416946929x  // 2  OTP(1B) Atom F1->1A : SF Length:   03         [ 22 FD 35 ]
  17.510135 2  18DAF11Ax       Rx   d 8 07 62 FD 35 FF E9 00 00  Length = 0 BitCount = 138 ID = 417001754x  // 2  OTP(1C) Atom 1A->F1 : SF Length:   07         [ 62 FD 35 FF E9 00 00 ]
  17.515255 2  18DA1AF1x       Tx   d 4 03 22 FD 35  Length = 0 BitCount = 101 ID = 416946929x  // 2  OTP(1D) Atom F1->1A : SF Length:   03         [ 22 FD 35 ]
  17.520158 2  18DAF11Ax       Rx   d 8 07 62 FD 35 FF E9 00 00  Length = 0 BitCount = 138 ID = 417001754x  // 2  OTP(1E) Atom 1A->F1 : SF Length:   07         [ 62 FD 35 FF E9 00 00 ]
  17.523286 2  18DA1AF1x       Tx   d 4 03 22 FD 35  Length = 0 BitCount = 101 ID = 416946929x  // 2  OTP(1F) Atom F1->1A : SF Length:   03         [ 22 FD 35 ]
  17.530182 2  18DAF11Ax       Rx   d 8 07 62 FD 35 FF E9 00 00  Length = 0 BitCount = 138 ID = 417001754x  // 2  OTP(20) Atom 1A->F1 : SF Length:   07         [ 62 FD 35 FF E9 00 00 ]
  17.535213 2  18DA1AF1x       Tx   d 4 03 22 FD 35  Length = 0 BitCount = 101 ID = 416946929x  // 2  OTP(21) Atom F1->1A : SF Length:   03         [ 22 FD 35 ]
  17.540149 2  18DAF11Ax       Rx   d 8 07 62 FD 35 FF E9 00 00  Length = 0 BitCount = 138 ID = 417001754x  // 2  OTP(22) Atom 1A->F1 : SF Length:   07         [ 62 FD 35 FF E9 00 00 ]
  17.543237 2  18DA1AF1x       Tx   d 4 03 22 FD 35  Length = 0 BitCount = 101 ID = 416946929x  // 2  OTP(23) Atom F1->1A : SF Length:   03         [ 22 FD 35 ]
  17.550133 2  18DAF11Ax       Rx   d 8 07 62 FD 35 FF E9 00 00  Length = 0 BitCount = 138 ID = 417001754x  // 2  OTP(24) Atom 1A->F1 : SF Length:   07         [ 62 FD 35 FF E9 00 00 ]
  17.555213 2  18DA1AF1x       Tx   d 4 03 22 FD 35  Length = 0 BitCount = 101 ID = 416946929x  // 2  OTP(25) Atom F1->1A : SF Length:   03         [ 22 FD 35 ]
  17.560149 2  18DAF11Ax       Rx   d 8 07 62 FD 35 FF E9 00 00  Length = 0 BitCount = 138 ID = 417001754x  // 2  OTP(26) Atom 1A->F1 : SF Length:   07         [ 62 FD 35 FF E9 00 00 ]
  17.561349 2  5B2             Rx   d 2 00 00  Length = 504000 BitCount = 67 ID = 1458
  17.563541 2  18DA1AF1x       Tx   d 4 03 22 FD 35  Length = 0 BitCount = 101 ID = 416946929x  // 2  OTP(27) Atom F1->1A : SF Length:   03         [ 22 FD 35 ]
  17.570180 2  18DAF11Ax       Rx   d 8 07 62 FD 35 FF E9 00 00  Length = 0 BitCount = 138 ID = 417001754x  // 2  OTP(28) Atom 1A->F1 : SF Length:   07         [ 62 FD 35 FF E9 00 00 ]
  17.573380 2  18DA1AF1x       Tx   d 4 03 22 FD 35  Length = 0 BitCount = 101 ID = 416946929x  // 2  OTP(29) Atom F1->1A : SF Length:   03         [ 22 FD 35 ]
  17.577580 2  380             Tx   d 8 00 04 40 00 00 00 00 00  Length = 984000 BitCount = 126 ID = 896
  17.578292 2  2A0             Tx   d 4 00 00 00 00  Length = 680000 BitCount = 88 ID = 672
  17.580164 2  18DAF11Ax       Rx   d 8 07 62 FD 35 FF E9 00 00  Length = 0 BitCount = 138 ID = 417001754x  // 2  OTP(2A) Atom 1A->F1 : SF Length:   07         [ 62 FD 35 FF E9 00 00 ]
  17.585363 2  18DA1AF1x       Tx   d 4 03 22 FD 35  Length = 0 BitCount = 101 ID = 416946929x  // 2  OTP(2B) Atom F1->1A : SF Length:   03         [ 22 FD 35 ]
  17.590147 2  18DAF11Ax       Rx   d 8 07 62 FD 35 FF E9 00 00  Length = 0 BitCount = 138 ID = 417001754x  // 2  OTP(2C) Atom 1A->F1 : SF Length:   07         [ 62 FD 35 FF E9 00 00 ]
  17.593427 2  18DA1AF1x       Tx   d 4 03 22 FD 35  Length = 0 BitCount = 101 ID = 416946929x  // 2  OTP(2D) Atom F1->1A : SF Length:   03         [ 22 FD 35 ]
  17.600154 2  18DAF11Ax       Rx   d 8 07 62 FD 35 FF E9 00 00  Length = 0 BitCount = 138 ID = 417001754x  // 2  OTP(2E) Atom 1A->F1 : SF Length:   07         [ 62 FD 35 FF E9 00 00 ]
  17.603361 2  18DA1AF1x       Tx   d 4 03 22 FD 35  Length = 0 BitCount = 101 ID = 416946929x  // 2  OTP(2F) Atom F1->1A : SF Length:   03         [ 22 FD 35 ]
  17.610177 2  18DAF11Ax       Rx   d 8 07 62 FD 35 FF E9 00 00  Length = 0 BitCount = 138 ID = 417001754x  // 2  OTP(30) Atom 1A->F1 : SF Length:   07         [ 62 FD 35 FF E9 00 00 ]
  17.613401 2  18DA1AF1x       Tx   d 4 03 22 FD 35  Length = 0 BitCount = 101 ID = 416946929x  // 2  OTP(31) Atom F1->1A : SF Length:   03         [ 22 FD 35 ]
  17.620136 2  18DAF11Ax       Rx   d 8 07 62 FD 35 FF E9 00 00  Length = 0 BitCount = 138 ID = 417001754x  // 2  OTP(32) Atom 1A->F1 : SF Length:   07         [ 62 FD 35 FF E9 00 00 ]
  17.625400 2  18DA1AF1x       Tx   d 4 03 22 FD 35  Length = 0 BitCount = 101 ID = 416946929x  // 2  OTP(33) Atom F1->1A : SF Length:   03         [ 22 FD 35 ]
  17.630144 2  18DAF11Ax       Rx   d 8 07 62 FD 35 FF E9 00 00  Length = 0 BitCount = 138 ID = 417001754x  // 2  OTP(34) Atom 1A->F1 : SF Length:   07         [ 62 FD 35 FF E9 00 00 ]
  17.633359 2  18DA1AF1x       Tx   d 4 03 22 FD 35  Length = 0 BitCount = 101 ID = 416946929x  // 2  OTP(35) Atom F1->1A : SF Length:   03         [ 22 FD 35 ]
  17.640143 2  18DAF11Ax       Rx   d 8 07 62 FD 35 FF E9 00 00  Length = 0 BitCount = 138 ID = 417001754x  // 2  OTP(36) Atom 1A->F1 : SF Length:   07         [ 62 FD 35 FF E9 00 00 ]
  17.645359 2  18DA1AF1x       Tx   d 4 03 22 FD 35  Length = 0 BitCount = 101 ID = 416946929x  // 2  OTP(37) Atom F1->1A : SF Length:   03         [ 22 FD 35 ]
  17.650182 2  18DAF11Ax       Rx   d 8 07 62 FD 35 FF E9 00 00  Length = 0 BitCount = 138 ID = 417001754x  // 2  OTP(38) Atom 1A->F1 : SF Length:   07         [ 62 FD 35 FF E9 00 00 ]
  17.655534 2  18DA1AF1x       Tx   d 4 03 22 FD 35  Length = 0 BitCount = 101 ID = 416946929x  // 2  OTP(39) Atom F1->1A : SF Length:   03         [ 22 FD 35 ]
  17.660190 2  18DAF11Ax       Rx   d 8 07 62 FD 35 FF E9 00 00  Length = 0 BitCount = 138 ID = 417001754x  // 2  OTP(3A) Atom 1A->F1 : SF Length:   07         [ 62 FD 35 FF E9 00 00 ]
  17.661350 2  5B2             Rx   d 2 00 00  Length = 504000 BitCount = 67 ID = 1458
  17.662806 2  3D2             Rx   d 8 00 00 00 00 00 0C 00 00  Length = 952000 BitCount = 123 ID = 978
  17.663622 2  18DA1AF1x       Tx   d 4 03 22 FD 35  Length = 0 BitCount = 101 ID = 416946929x  // 2  OTP(3B) Atom F1->1A : SF Length:   03         [ 22 FD 35 ]
  17.670133 2  18DAF11Ax       Rx   d 8 07 62 FD 35 FF E9 00 00  Length = 0 BitCount = 138 ID = 417001754x  // 2  OTP(3C) Atom 1A->F1 : SF Length:   07         [ 62 FD 35 FF E9 00 00 ]
  17.673469 2  18DA1AF1x       Tx   d 4 03 22 FD 35  Length = 0 BitCount = 101 ID = 416946929x  // 2  OTP(3D) Atom F1->1A : SF Length:   03         [ 22 FD 35 ]
  17.677365 2  2A0             Tx   d 4 00 00 00 00  Length = 680000 BitCount = 88 ID = 672
  17.680149 2  18DAF11Ax       Rx   d 8 07 62 FD 35 FF E9 00 00  Length = 0 BitCount = 138 ID = 417001754x  // 2  OTP(3E) Atom 1A->F1 : SF Length:   07         [ 62 FD 35 FF E9 00 00 ]
  17.683444 2  18DA1AF1x       Tx   d 4 03 22 FD 35  Length = 0 BitCount = 101 ID = 416946929x  // 2  OTP(3F) Atom F1->1A : SF Length:   03         [ 22 FD 35 ]
  17.690180 2  18DAF11Ax       Rx   d 8 07 62 FD 35 FF E9 00 00  Length = 0 BitCount = 138 ID = 417001754x  // 2  OTP(40) Atom 1A->F1 : SF Length:   07         [ 62 FD 35 FF E9 00 00 ]
  17.695284 2  18DA1AF1x       Tx   d 4 03 22 FD 35  Length = 0 BitCount = 101 ID = 416946929x  // 2  OTP(41) Atom F1->1A : SF Length:   03         [ 22 FD 35 ]
  17.700155 2  18DAF11Ax       Rx   d 8 07 62 FD 35 FF E9 00 00  Length = 0 BitCount = 138 ID = 417001754x  // 2  OTP(42) Atom 1A->F1 : SF Length:   07         [ 62 FD 35 FF E9 00 00 ]
  17.703331 2  18DA1AF1x       Tx   d 4 03 22 FD 35  Length = 0 BitCount = 101 ID = 416946929x  // 2  OTP(43) Atom F1->1A : SF Length:   03         [ 22 FD 35 ]
  17.710131 2  18DAF11Ax       Rx   d 8 07 62 FD 35 FF E9 00 00  Length = 0 BitCount = 138 ID = 417001754x  // 2  OTP(44) Atom 1A->F1 : SF Length:   07         [ 62 FD 35 FF E9 00 00 ]
  17.713331 2  18DA1AF1x       Tx   d 4 03 22 FD 35  Length = 0 BitCount = 101 ID = 416946929x  // 2  OTP(45) Atom F1->1A : SF Length:   03         [ 22 FD 35 ]
  17.720146 2  18DAF11Ax       Rx   d 8 07 62 FD 35 FF E9 00 00  Length = 0 BitCount = 138 ID = 417001754x  // 2  OTP(46) Atom 1A->F1 : SF Length:   07         [ 62 FD 35 FF E9 00 00 ]
  17.723306 2  18DA1AF1x       Tx   d 4 03 22 FD 35  Length = 0 BitCount = 101 ID = 416946929x  // 2  OTP(47) Atom F1->1A : SF Length:   03         [ 22 FD 35 ]
  17.730177 2  18DAF11Ax       Rx   d 8 07 62 FD 35 FF E9 00 00  Length = 0 BitCount = 138 ID = 417001754x  // 2  OTP(48) Atom 1A->F1 : SF Length:   07         [ 62 FD 35 FF E9 00 00 ]
  17.735289 2  18DA1AF1x       Tx   d 4 03 22 FD 35  Length = 0 BitCount = 101 ID = 416946929x  // 2  OTP(49) Atom F1->1A : SF Length:   03         [ 22 FD 35 ]
  17.740169 2  18DAF11Ax       Rx   d 8 07 62 FD 35 FF E9 00 00  Length = 0 BitCount = 138 ID = 417001754x  // 2  OTP(4A) Atom 1A->F1 : SF Length:   07         [ 62 FD 35 FF E9 00 00 ]
  17.743305 2  18DA1AF1x       Tx   d 4 03 22 FD 35  Length = 0 BitCount = 101 ID = 416946929x  // 2  OTP(4B) Atom F1->1A : SF Length:   03         [ 22 FD 35 ]
  17.750128 2  18DAF11Ax       Rx   d 8 07 62 FD 35 FF E9 00 00  Length = 0 BitCount = 138 ID = 417001754x  // 2  OTP(4C) Atom 1A->F1 : SF Length:   07         [ 62 FD 35 FF E9 00 00 ]
  17.755288 2  18DA1AF1x       Tx   d 4 03 22 FD 35  Length = 0 BitCount = 101 ID = 416946929x  // 2  OTP(4D) Atom F1->1A : SF Length:   03         [ 22 FD 35 ]
  17.760152 2  18DAF11Ax       Rx   d 8 07 62 FD 35 FF E9 00 00  Length = 0 BitCount = 138 ID = 417001754x  // 2  OTP(4E) Atom 1A->F1 : SF Length:   07         [ 62 FD 35 FF E9 00 00 ]
  17.761344 2  5B2             Rx   d 2 00 00  Length = 504000 BitCount = 67 ID = 1458
  17.763359 2  18DA1AF1x       Tx   d 4 03 22 FD 35  Length = 0 BitCount = 101 ID = 416946929x  // 2  OTP(4F) Atom F1->1A : SF Length:   03         [ 22 FD 35 ]
  17.770175 2  18DAF11Ax       Rx   d 8 07 62 FD 35 FF E9 00 00  Length = 0 BitCount = 138 ID = 417001754x  // 2  OTP(50) Atom 1A->F1 : SF Length:   07         [ 62 FD 35 FF E9 00 00 ]
  17.773327 2  18DA1AF1x       Tx   d 4 03 22 FD 35  Length = 0 BitCount = 101 ID = 416946929x  // 2  OTP(51) Atom F1->1A : SF Length:   03         [ 22 FD 35 ]
  17.777199 2  2A0             Tx   d 4 00 00 00 00  Length = 680000 BitCount = 88 ID = 672
  17.780134 2  18DAF11Ax       Rx   d 8 07 62 FD 35 FF E9 00 00  Length = 0 BitCount = 138 ID = 417001754x  // 2  OTP(52) Atom 1A->F1 : SF Length:   07         [ 62 FD 35 FF E9 00 00 ]
  17.785286 2  18DA1AF1x       Tx   d 4 03 22 FD 35  Length = 0 BitCount = 101 ID = 416946929x  // 2  OTP(53) Atom F1->1A : SF Length:   03         [ 22 FD 35 ]
  17.790142 2  18DAF11Ax       Rx   d 8 07 62 FD 35 FF E9 00 00  Length = 0 BitCount = 138 ID = 417001754x  // 2  OTP(54) Atom 1A->F1 : SF Length:   07         [ 62 FD 35 FF E9 00 00 ]
  17.793326 2  18DA1AF1x       Tx   d 4 03 22 FD 35  Length = 0 BitCount = 101 ID = 416946929x  // 2  OTP(55) Atom F1->1A : SF Length:   03         [ 22 FD 35 ]
  17.800149 2  18DAF11Ax       Rx   d 8 07 62 FD 35 FF E9 00 00  Length = 0 BitCount = 138 ID = 417001754x  // 2  OTP(56) Atom 1A->F1 : SF Length:   07         [ 62 FD 35 FF E9 00 00 ]
  17.803325 2  18DA1AF1x       Tx   d 4 03 22 FD 35  Length = 0 BitCount = 101 ID = 416946929x  // 2  OTP(57) Atom F1->1A : SF Length:   03         [ 22 FD 35 ]
  17.810173 2  18DAF11Ax       Rx   d 8 07 62 FD 35 FF E9 00 00  Length = 0 BitCount = 138 ID = 417001754x  // 2  OTP(58) Atom 1A->F1 : SF Length:   07         [ 62 FD 35 FF E9 00 00 ]
  17.813380 2  18DA1AF1x       Tx   d 4 03 22 FD 35  Length = 0 BitCount = 101 ID = 416946929x  // 2  OTP(59) Atom F1->1A : SF Length:   03         [ 22 FD 35 ]
  17.820156 2  18DAF11Ax       Rx   d 8 07 62 FD 35 FF E9 00 00  Length = 0 BitCount = 138 ID = 417001754x  // 2  OTP(5A) Atom 1A->F1 : SF Length:   07         [ 62 FD 35 FF E9 00 00 ]
  17.825308 2  18DA1AF1x       Tx   d 4 03 22 FD 35  Length = 0 BitCount = 101 ID = 416946929x  // 2  OTP(5B) Atom F1->1A : SF Length:   03         [ 22 FD 35 ]
  17.827556 2  380             Tx   d 8 00 04 40 00 00 00 00 00  Length = 984000 BitCount = 126 ID = 896
  17.830139 2  18DAF11Ax       Rx   d 8 07 62 FD 35 FF E9 00 00  Length = 0 BitCount = 138 ID = 417001754x  // 2  OTP(5C) Atom 1A->F1 : SF Length:   07         [ 62 FD 35 FF E9 00 00 ]
  17.835363 2  18DA1AF1x       Tx   d 4 03 22 FD 35  Length = 0 BitCount = 101 ID = 416946929x  // 2  OTP(5D) Atom F1->1A : SF Length:   03         [ 22 FD 35 ]
  17.840139 2  18DAF11Ax       Rx   d 8 07 62 FD 35 FF E9 00 00  Length = 0 BitCount = 138 ID = 417001754x  // 2  OTP(5E) Atom 1A->F1 : SF Length:   07         [ 62 FD 35 FF E9 00 00 ]
  17.843363 2  18DA1AF1x       Tx   d 4 03 22 FD 35  Length = 0 BitCount = 101 ID = 416946929x  // 2  OTP(5F) Atom F1->1A : SF Length:   03         [ 22 FD 35 ]
  17.850170 2  18DAF11Ax       Rx   d 8 07 62 FD 35 FF E9 00 00  Length = 0 BitCount = 138 ID = 417001754x  // 2  OTP(60) Atom 1A->F1 : SF Length:   07         [ 62 FD 35 FF E9 00 00 ]
  17.853282 2  18DA1AF1x       Tx   d 4 03 22 FD 35  Length = 0 BitCount = 101 ID = 416946929x  // 2  OTP(61) Atom F1->1A : SF Length:   03         [ 22 FD 35 ]
  17.860130 2  18DAF11Ax       Rx   d 8 07 62 FD 35 FF E9 00 00  Length = 0 BitCount = 138 ID = 417001754x  // 2  OTP(62) Atom 1A->F1 : SF Length:   07         [ 62 FD 35 FF E9 00 00 ]
  17.861345 2  5B2             Rx   d 2 00 00  Length = 504000 BitCount = 67 ID = 1458
  17.865329 2  18DA1AF1x       Tx   d 4 03 22 FD 35  Length = 0 BitCount = 101 ID = 416946929x  // 2  OTP(63) Atom F1->1A : SF Length:   03         [ 22 FD 35 ]
  17.870137 2  18DAF11Ax       Rx   d 8 07 62 FD 35 FF E9 00 00  Length = 0 BitCount = 138 ID = 417001754x  // 2  OTP(00) Atom 1A->F1 : SF Length:   07         [ 62 FD 35 FF E9 00 00 ]
  17.873305 2  18DA1AF1x       Tx   d 4 03 22 FD 35  Length = 0 BitCount = 101 ID = 416946929x  // 2  OTP(01) Atom F1->1A : SF Length:   03         [ 22 FD 35 ]
  17.877273 2  2A0             Tx   d 4 00 00 00 00  Length = 680000 BitCount = 88 ID = 672
  17.880128 2  18DAF11Ax       Rx   d 8 07 62 FD 35 FF E9 00 00  Length = 0 BitCount = 138 ID = 417001754x  // 2  OTP(02) Atom 1A->F1 : SF Length:   07         [ 62 FD 35 FF E9 00 00 ]
  17.885336 2  18DA1AF1x       Tx   d 4 03 22 FD 35  Length = 0 BitCount = 101 ID = 416946929x  // 2  OTP(03) Atom F1->1A : SF Length:   03         [ 22 FD 35 ]
  17.890160 2  18DAF11Ax       Rx   d 8 07 62 FD 35 FF E9 00 00  Length = 0 BitCount = 138 ID = 417001754x  // 2  OTP(04) Atom 1A->F1 : SF Length:   07         [ 62 FD 35 FF E9 00 00 ]
  17.893376 2  18DA1AF1x       Tx   d 4 03 22 FD 35  Length = 0 BitCount = 101 ID = 416946929x  // 2  OTP(05) Atom F1->1A : SF Length:   03         [ 22 FD 35 ]
  17.900159 2  18DAF11Ax       Rx   d 8 07 62 FD 35 FF E9 00 00  Length = 0 BitCount = 138 ID = 417001754x  // 2  OTP(06) Atom 1A->F1 : SF Length:   07         [ 62 FD 35 FF E9 00 00 ]
  17.905423 2  18DA1AF1x       Tx   d 4 03 22 FD 35  Length = 0 BitCount = 101 ID = 416946929x  // 2  OTP(07) Atom F1->1A : SF Length:   03         [ 22 FD 35 ]
  17.910134 2  18DAF11Ax       Rx   d 8 07 62 FD 35 FF E9 00 00  Length = 0 BitCount = 138 ID = 417001754x  // 2  OTP(08) Atom 1A->F1 : SF Length:   07         [ 62 FD 35 FF E9 00 00 ]
  17.913613 2  18DA1AF1x       Tx   d 4 03 22 FD 35  Length = 0 BitCount = 101 ID = 416946929x  // 2  OTP(09) Atom F1->1A : SF Length:   03         [ 22 FD 35 ]
  17.920125 2  18DAF11Ax       Rx   d 8 07 62 FD 35 FF E9 00 00  Length = 0 BitCount = 138 ID = 417001754x  // 2  OTP(0A) Atom 1A->F1 : SF Length:   07         [ 62 FD 35 FF E9 00 00 ]
  17.925341 2  18DA1AF1x       Tx   d 4 03 22 FD 35  Length = 0 BitCount = 101 ID = 416946929x  // 2  OTP(0B) Atom F1->1A : SF Length:   03         [ 22 FD 35 ]
  17.930180 2  18DAF11Ax       Rx   d 8 07 62 FD 35 FF E9 00 00  Length = 0 BitCount = 138 ID = 417001754x  // 2  OTP(0C) Atom 1A->F1 : SF Length:   07         [ 62 FD 35 FF E9 00 00 ]
  17.933380 2  18DA1AF1x       Tx   d 4 03 22 FD 35  Length = 0 BitCount = 101 ID = 416946929x  // 2  OTP(0D) Atom F1->1A : SF Length:   03         [ 22 FD 35 ]
  17.940124 2  18DAF11Ax       Rx   d 8 07 62 FD 35 FF E9 00 00  Length = 0 BitCount = 138 ID = 417001754x  // 2  OTP(0E) Atom 1A->F1 : SF Length:   07         [ 62 FD 35 FF E9 00 00 ]
  17.945379 2  18DA1AF1x       Tx   d 4 03 22 FD 35  Length = 0 BitCount = 101 ID = 416946929x  // 2  OTP(0F) Atom F1->1A : SF Length:   03         [ 22 FD 35 ]
  17.950147 2  18DAF11Ax       Rx   d 8 07 62 FD 35 FF E9 00 00  Length = 0 BitCount = 138 ID = 417001754x  // 2  OTP(10) Atom 1A->F1 : SF Length:   07         [ 62 FD 35 FF E9 00 00 ]
  17.953443 2  18DA1AF1x       Tx   d 4 03 22 FD 35  Length = 0 BitCount = 101 ID = 416946929x  // 2  OTP(11) Atom F1->1A : SF Length:   03         [ 22 FD 35 ]
  17.960130 2  18DAF11Ax       Rx   d 8 07 62 FD 35 FF E9 00 00  Length = 0 BitCount = 138 ID = 417001754x  // 2  OTP(12) Atom 1A->F1 : SF Length:   07         [ 62 FD 35 FF E9 00 00 ]
  17.961337 2  5B2             Rx   d 2 00 00  Length = 504000 BitCount = 67 ID = 1458
  17.963441 2  18DA1AF1x       Tx   d 4 03 22 FD 35  Length = 0 BitCount = 101 ID = 416946929x  // 2  OTP(13) Atom F1->1A : SF Length:   03         [ 22 FD 35 ]
  17.970153 2  18DAF11Ax       Rx   d 8 07 62 FD 35 FF E9 00 00  Length = 0 BitCount = 138 ID = 417001754x  // 2  OTP(14) Atom 1A->F1 : SF Length:   07         [ 62 FD 35 FF E9 00 00 ]
  17.975337 2  18DA1AF1x       Tx   d 4 03 22 FD 35  Length = 0 BitCount = 101 ID = 416946929x  // 2  OTP(15) Atom F1->1A : SF Length:   03         [ 22 FD 35 ]
  17.977232 2  2A0             Tx   d 4 00 00 00 00  Length = 680000 BitCount = 88 ID = 672
  17.980168 2  18DAF11Ax       Rx   d 8 07 62 FD 35 FF E9 00 00  Length = 0 BitCount = 138 ID = 417001754x  // 2  OTP(16) Atom 1A->F1 : SF Length:   07         [ 62 FD 35 FF E9 00 00 ]
  17.983672 2  18DA1AF1x       Tx   d 4 03 22 FD 35  Length = 0 BitCount = 101 ID = 416946929x  // 2  OTP(17) Atom F1->1A : SF Length:   03         [ 22 FD 35 ]
  17.990120 2  18DAF11Ax       Rx   d 8 07 62 FD 35 FF E9 00 00  Length = 0 BitCount = 138 ID = 417001754x  // 2  OTP(18) Atom 1A->F1 : SF Length:   07         [ 62 FD 35 FF E9 00 00 ]
  17.995375 2  18DA1AF1x       Tx   d 4 03 22 FD 35  Length = 0 BitCount = 101 ID = 416946929x  // 2  OTP(19) Atom F1->1A : SF Length:   03         [ 22 FD 35 ]
  18.000127 2  18DAF11Ax       Rx   d 8 07 62 FD 35 FF E9 00 00  Length = 0 BitCount = 138 ID = 417001754x  // 2  OTP(1A) Atom 1A->F1 : SF Length:   07         [ 62 FD 35 FF E9 00 00 ]
  18.000598 CAN 1 Status:chip status error active
  18.000764 CAN 2 Status:chip status error active
  18.003463 2  18DA1AF1x       Tx   d 4 03 22 FD 35  Length = 0 BitCount = 101 ID = 416946929x  // 2  OTP(1B) Atom F1->1A : SF Length:   03         [ 22 FD 35 ]
  18.010150 2  18DAF11Ax       Rx   d 8 07 62 FD 35 FF E9 00 00  Length = 0 BitCount = 138 ID = 417001754x  // 2  OTP(1C) Atom 1A->F1 : SF Length:   07         [ 62 FD 35 FF E9 00 00 ]
  18.015326 2  18DA1AF1x       Tx   d 4 03 22 FD 35  Length = 0 BitCount = 101 ID = 416946929x  // 2  OTP(1D) Atom F1->1A : SF Length:   03         [ 22 FD 35 ]
  18.020142 2  18DAF11Ax       Rx   d 8 07 62 FD 35 FF E9 00 00  Length = 0 BitCount = 138 ID = 417001754x  // 2  OTP(1E) Atom 1A->F1 : SF Length:   07         [ 62 FD 35 FF E9 00 00 ]
  18.023342 2  18DA1AF1x       Tx   d 4 03 22 FD 35  Length = 0 BitCount = 101 ID = 416946929x  // 2  OTP(1F) Atom F1->1A : SF Length:   03         [ 22 FD 35 ]
  18.030117 2  18DAF11Ax       Rx   d 8 07 62 FD 35 FF E9 00 00  Length = 0 BitCount = 138 ID = 417001754x  // 2  OTP(20) Atom 1A->F1 : SF Length:   07         [ 62 FD 35 FF E9 00 00 ]
  18.035341 2  18DA1AF1x       Tx   d 4 03 22 FD 35  Length = 0 BitCount = 101 ID = 416946929x  // 2  OTP(21) Atom F1->1A : SF Length:   03         [ 22 FD 35 ]
  18.040117 2  18DAF11Ax       Rx   d 8 07 62 FD 35 FF E9 00 00  Length = 0 BitCount = 138 ID = 417001754x  // 2  OTP(22) Atom 1A->F1 : SF Length:   07         [ 62 FD 35 FF E9 00 00 ]
  18.043356 2  18DA1AF1x       Tx   d 4 03 22 FD 35  Length = 0 BitCount = 101 ID = 416946929x  // 2  OTP(23) Atom F1->1A : SF Length:   03         [ 22 FD 35 ]
  18.047300 2  18DA1AF1x       Tx   d 3 02 3E 00  Length = 0 BitCount = 96 ID = 416946929x  // 2  OTP(24) Atom F1->1A : SF Length:   02         [ 3E 00 ]
  18.050164 2  18DAF11Ax       Rx   d 8 07 62 FD 35 FF E9 00 00  Length = 0 BitCount = 138 ID = 417001754x  // 2  OTP(25) Atom 1A->F1 : SF Length:   07         [ 62 FD 35 FF E9 00 00 ]
  18.053276 2  18DA1AF1x       Tx   d 4 03 22 FD 35  Length = 0 BitCount = 101 ID = 416946929x  // 2  OTP(26) Atom F1->1A : SF Length:   03         [ 22 FD 35 ]
  18.060163 2  18DAF11Ax       Rx   d 8 07 62 FD 35 FF E9 00 00  Length = 0 BitCount = 138 ID = 417001754x  // 2  OTP(27) Atom 1A->F1 : SF Length:   07         [ 62 FD 35 FF E9 00 00 ]
  18.061338 2  5B2             Rx   d 2 00 00  Length = 504000 BitCount = 67 ID = 1458
  18.065274 2  18DA1AF1x       Tx   d 4 03 22 FD 35  Length = 0 BitCount = 101 ID = 416946929x  // 2  OTP(28) Atom F1->1A : SF Length:   03         [ 22 FD 35 ]
  18.070122 2  18DAF11Ax       Rx   d 8 07 62 FD 35 FF E9 00 00  Length = 0 BitCount = 138 ID = 417001754x  // 2  OTP(29) Atom 1A->F1 : SF Length:   07         [ 62 FD 35 FF E9 00 00 ]
  18.073306 2  18DA1AF1x       Tx   d 4 03 22 FD 35  Length = 0 BitCount = 101 ID = 416946929x  // 2  OTP(2A) Atom F1->1A : SF Length:   03         [ 22 FD 35 ]
  18.077369 2  700             Tx   d 6 00 02 00 00 00 00  Length = 832000 BitCount = 107 ID = 1792
  18.078385 2  380             Tx   d 8 00 04 40 00 00 00 00 00  Length = 984000 BitCount = 126 ID = 896
  18.079097 2  2A0             Tx   d 4 00 00 00 00  Length = 680000 BitCount = 88 ID = 672
  18.080193 2  18DAF11Ax       Rx   d 8 07 62 FD 35 FF E9 00 00  Length = 0 BitCount = 138 ID = 417001754x  // 2  OTP(2B) Atom 1A->F1 : SF Length:   07         [ 62 FD 35 FF E9 00 00 ]
  18.085233 2  18DA1AF1x       Tx   d 4 03 22 FD 35  Length = 0 BitCount = 101 ID = 416946929x  // 2  OTP(2C) Atom F1->1A : SF Length:   03         [ 22 FD 35 ]
  18.088361 2  712             Rx   d 2 00 32  Length = 496000 BitCount = 66 ID = 1810
  18.090168 2  18DAF11Ax       Rx   d 8 07 62 FD 35 FF E9 00 00  Length = 0 BitCount = 138 ID = 417001754x  // 2  OTP(2D) Atom 1A->F1 : SF Length:   07         [ 62 FD 35 FF E9 00 00 ]
  18.093271 2  18DA1AF1x       Tx   d 4 03 22 FD 35  Length = 0 BitCount = 101 ID = 416946929x  // 2  OTP(2E) Atom F1->1A : SF Length:   03         [ 22 FD 35 ]
  18.100135 2  18DAF11Ax       Rx   d 8 07 62 FD 35 FF E9 00 00  Length = 0 BitCount = 138 ID = 417001754x  // 2  OTP(2F) Atom 1A->F1 : SF Length:   07         [ 62 FD 35 FF E9 00 00 ]
  18.103231 2  18DA1AF1x       Tx   d 4 03 22 FD 35  Length = 0 BitCount = 101 ID = 416946929x  // 2  OTP(30) Atom F1->1A : SF Length:   03         [ 22 FD 35 ]
  18.110142 2  18DAF11Ax       Rx   d 8 07 62 FD 35 FF E9 00 00  Length = 0 BitCount = 138 ID = 417001754x  // 2  OTP(31) Atom 1A->F1 : SF Length:   07         [ 62 FD 35 FF E9 00 00 ]
  18.113422 2  18DA1AF1x       Tx   d 4 03 22 FD 35  Length = 0 BitCount = 101 ID = 416946929x  // 2  OTP(32) Atom F1->1A : SF Length:   03         [ 22 FD 35 ]
  18.120134 2  18DAF11Ax       Rx   d 8 07 62 FD 35 FF E9 00 00  Length = 0 BitCount = 138 ID = 417001754x  // 2  OTP(33) Atom 1A->F1 : SF Length:   07         [ 62 FD 35 FF E9 00 00 ]
  18.123357 2  18DA1AF1x       Tx   d 4 03 22 FD 35  Length = 0 BitCount = 101 ID = 416946929x  // 2  OTP(34) Atom F1->1A : SF Length:   03         [ 22 FD 35 ]
  18.130165 2  18DAF11Ax       Rx   d 8 07 62 FD 35 FF E9 00 00  Length = 0 BitCount = 138 ID = 417001754x  // 2  OTP(35) Atom 1A->F1 : SF Length:   07         [ 62 FD 35 FF E9 00 00 ]
  18.133357 2  18DA1AF1x       Tx   d 4 03 22 FD 35  Length = 0 BitCount = 101 ID = 416946929x  // 2  OTP(36) Atom F1->1A : SF Length:   03         [ 22 FD 35 ]
  18.140164 2  18DAF11Ax       Rx   d 8 07 62 FD 35 FF E9 00 00  Length = 0 BitCount = 138 ID = 417001754x  // 2  OTP(37) Atom 1A->F1 : SF Length:   07         [ 62 FD 35 FF E9 00 00 ]
  18.145420 2  18DA1AF1x       Tx   d 4 03 22 FD 35  Length = 0 BitCount = 101 ID = 416946929x  // 2  OTP(38) Atom F1->1A : SF Length:   03         [ 22 FD 35 ]
  18.150124 2  18DAF11Ax       Rx   d 8 07 62 FD 35 FF E9 00 00  Length = 0 BitCount = 138 ID = 417001754x  // 2  OTP(39) Atom 1A->F1 : SF Length:   07         [ 62 FD 35 FF E9 00 00 ]
  18.155467 2  18DA1AF1x       Tx   d 4 03 22 FD 35  Length = 0 BitCount = 101 ID = 416946929x  // 2  OTP(3A) Atom F1->1A : SF Length:   03         [ 22 FD 35 ]
  18.160131 2  18DAF11Ax       Rx   d 8 07 62 FD 35 FF E9 00 00  Length = 0 BitCount = 138 ID = 417001754x  // 2  OTP(3B) Atom 1A->F1 : SF Length:   07         [ 62 FD 35 FF E9 00 00 ]
  18.161331 2  5B2             Rx   d 2 00 00  Length = 504000 BitCount = 67 ID = 1458
  18.162787 2  3D2             Rx   d 8 00 00 00 00 00 0C 00 00  Length = 952000 BitCount = 123 ID = 978
  18.163603 2  18DA1AF1x       Tx   d 4 03 22 FD 35  Length = 0 BitCount = 101 ID = 416946929x  // 2  OTP(3C) Atom F1->1A : SF Length:   03         [ 22 FD 35 ]
  18.170147 2  18DAF11Ax       Rx   d 8 07 62 FD 35 FF E9 00 00  Length = 0 BitCount = 138 ID = 417001754x  // 2  OTP(3D) Atom 1A->F1 : SF Length:   07         [ 62 FD 35 FF E9 00 00 ]
  18.173354 2  18DA1AF1x       Tx   d 4 03 22 FD 35  Length = 0 BitCount = 101 ID = 416946929x  // 2  OTP(3E) Atom F1->1A : SF Length:   03         [ 22 FD 35 ]
  18.177402 2  2A0             Tx   d 4 00 00 00 00  Length = 680000 BitCount = 88 ID = 672
  18.180130 2  18DAF11Ax       Rx   d 8 07 62 FD 35 FF E9 00 00  Length = 0 BitCount = 138 ID = 417001754x  // 2  OTP(3F) Atom 1A->F1 : SF Length:   07         [ 62 FD 35 FF E9 00 00 ]
  18.185690 2  18DA1AF1x       Tx   d 4 03 22 FD 35  Length = 0 BitCount = 101 ID = 416946929x  // 2  OTP(40) Atom F1->1A : SF Length:   03         [ 22 FD 35 ]
  18.190113 2  18DAF11Ax       Rx   d 8 07 62 FD 35 FF E9 00 00  Length = 0 BitCount = 138 ID = 417001754x  // 2  OTP(41) Atom 1A->F1 : SF Length:   07         [ 62 FD 35 FF E9 00 00 ]
  18.193417 2  18DA1AF1x       Tx   d 4 03 22 FD 35  Length = 0 BitCount = 101 ID = 416946929x  // 2  OTP(42) Atom F1->1A : SF Length:   03         [ 22 FD 35 ]
  18.200121 2  18DAF11Ax       Rx   d 8 07 62 FD 35 FF E9 00 00  Length = 0 BitCount = 138 ID = 417001754x  // 2  OTP(43) Atom 1A->F1 : SF Length:   07         [ 62 FD 35 FF E9 00 00 ]
  18.203441 2  18DA1AF1x       Tx   d 4 03 22 FD 35  Length = 0 BitCount = 101 ID = 416946929x  // 2  OTP(44) Atom F1->1A : SF Length:   03         [ 22 FD 35 ]
  18.210144 2  18DAF11Ax       Rx   d 8 07 62 FD 35 FF E9 00 00  Length = 0 BitCount = 138 ID = 417001754x  // 2  OTP(45) Atom 1A->F1 : SF Length:   07         [ 62 FD 35 FF E9 00 00 ]
  18.215416 2  18DA1AF1x       Tx   d 4 03 22 FD 35  Length = 0 BitCount = 101 ID = 416946929x  // 2  OTP(46) Atom F1->1A : SF Length:   03         [ 22 FD 35 ]
  18.220160 2  18DAF11Ax       Rx   d 8 07 62 FD 35 FF E9 00 00  Length = 0 BitCount = 138 ID = 417001754x  // 2  OTP(47) Atom 1A->F1 : SF Length:   07         [ 62 FD 35 FF E9 00 00 ]
  18.223647 2  18DA1AF1x       Tx   d 4 03 22 FD 35  Length = 0 BitCount = 101 ID = 416946929x  // 2  OTP(48) Atom F1->1A : SF Length:   03         [ 22 FD 35 ]
  18.230143 2  18DAF11Ax       Rx   d 8 07 62 FD 35 FF E9 00 00  Length = 0 BitCount = 138 ID = 417001754x  // 2  OTP(49) Atom 1A->F1 : SF Length:   07         [ 62 FD 35 FF E9 00 00 ]
  18.235359 2  18DA1AF1x       Tx   d 4 03 22 FD 35  Length = 0 BitCount = 101 ID = 416946929x  // 2  OTP(4A) Atom F1->1A : SF Length:   03         [ 22 FD 35 ]
  18.240126 2  18DAF11Ax       Rx   d 8 07 62 FD 35 FF E9 00 00  Length = 0 BitCount = 138 ID = 417001754x  // 2  OTP(4B) Atom 1A->F1 : SF Length:   07         [ 62 FD 35 FF E9 00 00 ]
  18.243358 2  18DA1AF1x       Tx   d 4 03 22 FD 35  Length = 0 BitCount = 101 ID = 416946929x  // 2  OTP(4C) Atom F1->1A : SF Length:   03         [ 22 FD 35 ]
  18.250158 2  18DAF11Ax       Rx   d 8 07 62 FD 35 FF E9 00 00  Length = 0 BitCount = 138 ID = 417001754x  // 2  OTP(4D) Atom 1A->F1 : SF Length:   07         [ 62 FD 35 FF E9 00 00 ]
  18.253357 2  18DA1AF1x       Tx   d 4 03 22 FD 35  Length = 0 BitCount = 101 ID = 416946929x  // 2  OTP(4E) Atom F1->1A : SF Length:   03         [ 22 FD 35 ]
  18.260125 2  18DAF11Ax       Rx   d 8 07 62 FD 35 FF E9 00 00  Length = 0 BitCount = 138 ID = 417001754x  // 2  OTP(4F) Atom 1A->F1 : SF Length:   07         [ 62 FD 35 FF E9 00 00 ]
  18.261333 2  5B2             Rx   d 2 00 00  Length = 504000 BitCount = 67 ID = 1458
  18.265437 2  18DA1AF1x       Tx   d 4 03 22 FD 35  Length = 0 BitCount = 101 ID = 416946929x  // 2  OTP(50) Atom F1->1A : SF Length:   03         [ 22 FD 35 ]
  18.270116 2  18DAF11Ax       Rx   d 8 07 62 FD 35 FF E9 00 00  Length = 0 BitCount = 138 ID = 417001754x  // 2  OTP(51) Atom 1A->F1 : SF Length:   07         [ 62 FD 35 FF E9 00 00 ]
  18.273331 2  18DA1AF1x       Tx   d 4 03 22 FD 35  Length = 0 BitCount = 101 ID = 416946929x  // 2  OTP(52) Atom F1->1A : SF Length:   03         [ 22 FD 35 ]
  18.277195 2  2A0             Tx   d 4 00 00 00 00  Length = 680000 BitCount = 88 ID = 672
  18.280123 2  18DAF11Ax       Rx   d 8 07 62 FD 35 FF E9 00 00  Length = 0 BitCount = 138 ID = 417001754x  // 2  OTP(53) Atom 1A->F1 : SF Length:   07         [ 62 FD 35 FF E9 00 00 ]
  18.285299 2  18DA1AF1x       Tx   d 4 03 22 FD 35  Length = 0 BitCount = 101 ID = 416946929x  // 2  OTP(54) Atom F1->1A : SF Length:   03         [ 22 FD 35 ]
  18.290162 2  18DAF11Ax       Rx   d 8 07 62 FD 35 FF E9 00 00  Length = 0 BitCount = 138 ID = 417001754x  // 2  OTP(55) Atom 1A->F1 : SF Length:   07         [ 62 FD 35 FF E9 00 00 ]
  18.293298 2  18DA1AF1x       Tx   d 4 03 22 FD 35  Length = 0 BitCount = 101 ID = 416946929x  // 2  OTP(56) Atom F1->1A : SF Length:   03         [ 22 FD 35 ]
  18.300154 2  18DAF11Ax       Rx   d 8 07 62 FD 35 FF E9 00 00  Length = 0 BitCount = 138 ID = 417001754x  // 2  OTP(57) Atom 1A->F1 : SF Length:   07         [ 62 FD 35 FF E9 00 00 ]
  18.303321 2  18DA1AF1x       Tx   d 4 03 22 FD 35  Length = 0 BitCount = 101 ID = 416946929x  // 2  OTP(58) Atom F1->1A : SF Length:   03         [ 22 FD 35 ]
  18.310129 2  18DAF11Ax       Rx   d 8 07 62 FD 35 FF E9 00 00  Length = 0 BitCount = 138 ID = 417001754x  // 2  OTP(59) Atom 1A->F1 : SF Length:   07         [ 62 FD 35 FF E9 00 00 ]
  18.315273 2  18DA1AF1x       Tx   d 4 03 22 FD 35  Length = 0 BitCount = 101 ID = 416946929x  // 2  OTP(5A) Atom F1->1A : SF Length:   03         [ 22 FD 35 ]
  18.320120 2  18DAF11Ax       Rx   d 8 07 62 FD 35 FF E9 00 00  Length = 0 BitCount = 138 ID = 417001754x  // 2  OTP(5B) Atom 1A->F1 : SF Length:   07         [ 62 FD 35 FF E9 00 00 ]
  18.323296 2  18DA1AF1x       Tx   d 4 03 22 FD 35  Length = 0 BitCount = 101 ID = 416946929x  // 2  OTP(5C) Atom F1->1A : SF Length:   03         [ 22 FD 35 ]
  18.327472 2  380             Tx   d 8 00 04 40 00 00 00 00 00  Length = 984000 BitCount = 126 ID = 896
  18.330152 2  18DAF11Ax       Rx   d 8 07 62 FD 35 FF E9 00 00  Length = 0 BitCount = 138 ID = 417001754x  // 2  OTP(5D) Atom 1A->F1 : SF Length:   07         [ 62 FD 35 FF E9 00 00 ]
  18.333296 2  18DA1AF1x       Tx   d 4 03 22 FD 35  Length = 0 BitCount = 101 ID = 416946929x  // 2  OTP(5E) Atom F1->1A : SF Length:   03         [ 22 FD 35 ]
  18.340127 2  18DAF11Ax       Rx   d 8 07 62 FD 35 FF E9 00 00  Length = 0 BitCount = 138 ID = 417001754x  // 2  OTP(5F) Atom 1A->F1 : SF Length:   07         [ 62 FD 35 FF E9 00 00 ]
  18.343375 2  18DA1AF1x       Tx   d 4 03 22 FD 35  Length = 0 BitCount = 101 ID = 416946929x  // 2  OTP(60) Atom F1->1A : SF Length:   03         [ 22 FD 35 ]
  18.350111 2  18DAF11Ax       Rx   d 8 07 62 FD 35 FF E9 00 00  Length = 0 BitCount = 138 ID = 417001754x  // 2  OTP(61) Atom 1A->F1 : SF Length:   07         [ 62 FD 35 FF E9 00 00 ]
  18.353374 2  18DA1AF1x       Tx   d 4 03 22 FD 35  Length = 0 BitCount = 101 ID = 416946929x  // 2  OTP(62) Atom F1->1A : SF Length:   03         [ 22 FD 35 ]
  18.360118 2  18DAF11Ax       Rx   d 8 07 62 FD 35 FF E9 00 00  Length = 0 BitCount = 138 ID = 417001754x  // 2  OTP(63) Atom 1A->F1 : SF Length:   07         [ 62 FD 35 FF E9 00 00 ]
  18.361326 2  5B2             Rx   d 2 00 00  Length = 504000 BitCount = 67 ID = 1458
  18.365398 2  18DA1AF1x       Tx   d 4 03 22 FD 35  Length = 0 BitCount = 101 ID = 416946929x  // 2  OTP(00) Atom F1->1A : SF Length:   03         [ 22 FD 35 ]
  18.370149 2  18DAF11Ax       Rx   d 8 07 62 FD 35 FF E9 00 00  Length = 0 BitCount = 138 ID = 417001754x  // 2  OTP(01) Atom 1A->F1 : SF Length:   07         [ 62 FD 35 FF E9 00 00 ]
  18.373333 2  18DA1AF1x       Tx   d 4 03 22 FD 35  Length = 0 BitCount = 101 ID = 416946929x  // 2  OTP(02) Atom F1->1A : SF Length:   03         [ 22 FD 35 ]
  18.377269 2  2A0             Tx   d 4 00 00 00 00  Length = 680000 BitCount = 88 ID = 672
  18.380157 2  18DAF11Ax       Rx   d 8 07 62 FD 35 FF E9 00 00  Length = 0 BitCount = 138 ID = 417001754x  // 2  OTP(03) Atom 1A->F1 : SF Length:   07         [ 62 FD 35 FF E9 00 00 ]
  18.385548 2  18DA1AF1x       Tx   d 4 03 22 FD 35  Length = 0 BitCount = 101 ID = 416946929x  // 2  OTP(04) Atom F1->1A : SF Length:   03         [ 22 FD 35 ]
  18.390116 2  18DAF11Ax       Rx   d 8 07 62 FD 35 FF E9 00 00  Length = 0 BitCount = 138 ID = 417001754x  // 2  OTP(05) Atom 1A->F1 : SF Length:   07         [ 62 FD 35 FF E9 00 00 ]
  18.393420 2  18DA1AF1x       Tx   d 4 03 22 FD 35  Length = 0 BitCount = 101 ID = 416946929x  // 2  OTP(06) Atom F1->1A : SF Length:   03         [ 22 FD 35 ]
  18.400124 2  18DAF11Ax       Rx   d 8 07 62 FD 35 FF E9 00 00  Length = 0 BitCount = 138 ID = 417001754x  // 2  OTP(07) Atom 1A->F1 : SF Length:   07         [ 62 FD 35 FF E9 00 00 ]
  18.403419 2  18DA1AF1x       Tx   d 4 03 22 FD 35  Length = 0 BitCount = 101 ID = 416946929x  // 2  OTP(08) Atom F1->1A : SF Length:   03         [ 22 FD 35 ]
  18.410147 2  18DAF11Ax       Rx   d 8 07 62 FD 35 FF E9 00 00  Length = 0 BitCount = 138 ID = 417001754x  // 2  OTP(09) Atom 1A->F1 : SF Length:   07         [ 62 FD 35 FF E9 00 00 ]
  18.415459 2  18DA1AF1x       Tx   d 4 03 22 FD 35  Length = 0 BitCount = 101 ID = 416946929x  // 2  OTP(0A) Atom F1->1A : SF Length:   03         [ 22 FD 35 ]
  18.420130 2  18DAF11Ax       Rx   d 8 07 62 FD 35 FF E9 00 00  Length = 0 BitCount = 138 ID = 417001754x  // 2  OTP(0B) Atom 1A->F1 : SF Length:   07         [ 62 FD 35 FF E9 00 00 ]
  18.423434 2  18DA1AF1x       Tx   d 4 03 22 FD 35  Length = 0 BitCount = 101 ID = 416946929x  // 2  OTP(0C) Atom F1->1A : SF Length:   03         [ 22 FD 35 ]
  18.430122 2  18DAF11Ax       Rx   d 8 07 62 FD 35 FF E9 00 00  Length = 0 BitCount = 138 ID = 417001754x  // 2  OTP(0D) Atom 1A->F1 : SF Length:   07         [ 62 FD 35 FF E9 00 00 ]
  18.435337 2  18DA1AF1x       Tx   d 4 03 22 FD 35  Length = 0 BitCount = 101 ID = 416946929x  // 2  OTP(0E) Atom F1->1A : SF Length:   03         [ 22 FD 35 ]
  18.440121 2  18DAF11Ax       Rx   d 8 07 62 FD 35 FF E9 00 00  Length = 0 BitCount = 138 ID = 417001754x  // 2  OTP(0F) Atom 1A->F1 : SF Length:   07         [ 62 FD 35 FF E9 00 00 ]
  18.443393 2  18DA1AF1x       Tx   d 4 03 22 FD 35  Length = 0 BitCount = 101 ID = 416946929x  // 2  OTP(10) Atom F1->1A : SF Length:   03         [ 22 FD 35 ]
  18.450160 2  18DAF11Ax       Rx   d 8 07 62 FD 35 FF E9 00 00  Length = 0 BitCount = 138 ID = 417001754x  // 2  OTP(11) Atom 1A->F1 : SF Length:   07         [ 62 FD 35 FF E9 00 00 ]
  18.453552 2  18DA1AF1x       Tx   d 4 03 22 FD 35  Length = 0 BitCount = 101 ID = 416946929x  // 2  OTP(12) Atom F1->1A : SF Length:   03         [ 22 FD 35 ]
  18.460160 2  18DAF11Ax       Rx   d 8 07 62 FD 35 FF E9 00 00  Length = 0 BitCount = 138 ID = 417001754x  // 2  OTP(13) Atom 1A->F1 : SF Length:   07         [ 62 FD 35 FF E9 00 00 ]
  18.461328 2  5B2             Rx   d 2 00 00  Length = 504000 BitCount = 67 ID = 1458
  18.465416 2  18DA1AF1x       Tx   d 4 03 22 FD 35  Length = 0 BitCount = 101 ID = 416946929x  // 2  OTP(14) Atom F1->1A : SF Length:   03         [ 22 FD 35 ]
  18.470111 2  18DAF11Ax       Rx   d 8 07 62 FD 35 FF E9 00 00  Length = 0 BitCount = 138 ID = 417001754x  // 2  OTP(15) Atom 1A->F1 : SF Length:   07         [ 62 FD 35 FF E9 00 00 ]
  18.473319 2  18DA1AF1x       Tx   d 4 03 22 FD 35  Length = 0 BitCount = 101 ID = 416946929x  // 2  OTP(16) Atom F1->1A : SF Length:   03         [ 22 FD 35 ]
  18.477215 2  2A0             Tx   d 4 00 00 00 00  Length = 680000 BitCount = 88 ID = 672
  18.480135 2  18DAF11Ax       Rx   d 8 07 62 FD 35 FF E9 00 00  Length = 0 BitCount = 138 ID = 417001754x  // 2  OTP(17) Atom 1A->F1 : SF Length:   07         [ 62 FD 35 FF E9 00 00 ]
  18.483502 2  18DA1AF1x       Tx   d 4 03 22 FD 35  Length = 0 BitCount = 101 ID = 416946929x  // 2  OTP(18) Atom F1->1A : SF Length:   03         [ 22 FD 35 ]
  18.490158 2  18DAF11Ax       Rx   d 8 07 62 FD 35 FF E9 00 00  Length = 0 BitCount = 138 ID = 417001754x  // 2  OTP(19) Atom 1A->F1 : SF Length:   07         [ 62 FD 35 FF E9 00 00 ]
  18.495350 2  18DA1AF1x       Tx   d 4 03 22 FD 35  Length = 0 BitCount = 101 ID = 416946929x  // 2  OTP(1A) Atom F1->1A : SF Length:   03         [ 22 FD 35 ]
  18.500133 2  18DAF11Ax       Rx   d 8 07 62 FD 35 FF E9 00 00  Length = 0 BitCount = 138 ID = 417001754x  // 2  OTP(1B) Atom 1A->F1 : SF Length:   07         [ 62 FD 35 FF E9 00 00 ]
  18.503437 2  18DA1AF1x       Tx   d 4 03 22 FD 35  Length = 0 BitCount = 101 ID = 416946929x  // 2  OTP(1C) Atom F1->1A : SF Length:   03         [ 22 FD 35 ]
  18.510109 2  18DAF11Ax       Rx   d 8 07 62 FD 35 FF E9 00 00  Length = 0 BitCount = 138 ID = 417001754x  // 2  OTP(1D) Atom 1A->F1 : SF Length:   07         [ 62 FD 35 FF E9 00 00 ]
  18.513397 2  18DA1AF1x       Tx   d 4 03 22 FD 35  Length = 0 BitCount = 101 ID = 416946929x  // 2  OTP(1E) Atom F1->1A : SF Length:   03         [ 22 FD 35 ]
  18.520132 2  18DAF11Ax       Rx   d 8 07 62 FD 35 FF E9 00 00  Length = 0 BitCount = 138 ID = 417001754x  // 2  OTP(1F) Atom 1A->F1 : SF Length:   07         [ 62 FD 35 FF E9 00 00 ]
  18.523372 2  18DA1AF1x       Tx   d 4 03 22 FD 35  Length = 0 BitCount = 101 ID = 416946929x  // 2  OTP(20) Atom F1->1A : SF Length:   03         [ 22 FD 35 ]
  18.530140 2  18DAF11Ax       Rx   d 8 07 62 FD 35 FF E9 00 00  Length = 0 BitCount = 138 ID = 417001754x  // 2  OTP(21) Atom 1A->F1 : SF Length:   07         [ 62 FD 35 FF E9 00 00 ]
  18.533579 2  18DA1AF1x       Tx   d 4 03 22 FD 35  Length = 0 BitCount = 101 ID = 416946929x  // 2  OTP(22) Atom F1->1A : SF Length:   03         [ 22 FD 35 ]
  18.540131 2  18DAF11Ax       Rx   d 8 07 62 FD 35 FF E9 00 00  Length = 0 BitCount = 138 ID = 417001754x  // 2  OTP(23) Atom 1A->F1 : SF Length:   07         [ 62 FD 35 FF E9 00 00 ]
  18.543315 2  18DA1AF1x       Tx   d 4 03 22 FD 35  Length = 0 BitCount = 101 ID = 416946929x  // 2  OTP(24) Atom F1->1A : SF Length:   03         [ 22 FD 35 ]
  18.550122 2  18DAF11Ax       Rx   d 8 07 62 FD 35 FF E9 00 00  Length = 0 BitCount = 138 ID = 417001754x  // 2  OTP(25) Atom 1A->F1 : SF Length:   07         [ 62 FD 35 FF E9 00 00 ]
  18.553322 2  18DA1AF1x       Tx   d 4 03 22 FD 35  Length = 0 BitCount = 101 ID = 416946929x  // 2  OTP(26) Atom F1->1A : SF Length:   03         [ 22 FD 35 ]
  18.560106 2  18DAF11Ax       Rx   d 8 07 62 FD 35 FF E9 00 00  Length = 0 BitCount = 138 ID = 417001754x  // 2  OTP(27) Atom 1A->F1 : SF Length:   07         [ 62 FD 35 FF E9 00 00 ]
  18.561322 2  5B2             Rx   d 2 00 00  Length = 504000 BitCount = 67 ID = 1458
  18.565265 2  18DA1AF1x       Tx   d 4 03 22 FD 35  Length = 0 BitCount = 101 ID = 416946929x  // 2  OTP(28) Atom F1->1A : SF Length:   03         [ 22 FD 35 ]
  18.570161 2  18DAF11Ax       Rx   d 8 07 62 FD 35 FF E9 00 00  Length = 0 BitCount = 138 ID = 417001754x  // 2  OTP(29) Atom 1A->F1 : SF Length:   07         [ 62 FD 35 FF E9 00 00 ]
  18.573321 2  18DA1AF1x       Tx   d 4 03 22 FD 35  Length = 0 BitCount = 101 ID = 416946929x  // 2  OTP(2A) Atom F1->1A : SF Length:   03         [ 22 FD 35 ]
  18.577553 2  380             Tx   d 8 00 04 40 00 00 00 00 00  Length = 984000 BitCount = 126 ID = 896
  18.578265 2  2A0             Tx   d 4 00 00 00 00  Length = 680000 BitCount = 88 ID = 672
  18.580120 2  18DAF11Ax       Rx   d 8 07 62 FD 35 FF E9 00 00  Length = 0 BitCount = 138 ID = 417001754x  // 2  OTP(2B) Atom 1A->F1 : SF Length:   07         [ 62 FD 35 FF E9 00 00 ]
  18.583543 2  18DA1AF1x       Tx   d 4 03 22 FD 35  Length = 0 BitCount = 101 ID = 416946929x  // 2  OTP(2C) Atom F1->1A : SF Length:   03         [ 22 FD 35 ]
  18.590103 2  18DAF11Ax       Rx   d 8 07 62 FD 35 FF E9 00 00  Length = 0 BitCount = 138 ID = 417001754x  // 2  OTP(2D) Atom 1A->F1 : SF Length:   07         [ 62 FD 35 FF E9 00 00 ]
  18.593295 2  18DA1AF1x       Tx   d 4 03 22 FD 35  Length = 0 BitCount = 101 ID = 416946929x  // 2  OTP(2E) Atom F1->1A : SF Length:   03         [ 22 FD 35 ]
  18.600110 2  18DAF11Ax       Rx   d 8 07 62 FD 35 FF E9 00 00  Length = 0 BitCount = 138 ID = 417001754x  // 2  OTP(2F) Atom 1A->F1 : SF Length:   07         [ 62 FD 35 FF E9 00 00 ]
  18.605246 2  18DA1AF1x       Tx   d 4 03 22 FD 35  Length = 0 BitCount = 101 ID = 416946929x  // 2  OTP(30) Atom F1->1A : SF Length:   03         [ 22 FD 35 ]
  18.610158 2  18DAF11Ax       Rx   d 8 07 62 FD 35 FF E9 00 00  Length = 0 BitCount = 138 ID = 417001754x  // 2  OTP(31) Atom 1A->F1 : SF Length:   07         [ 62 FD 35 FF E9 00 00 ]
  18.613293 2  18DA1AF1x       Tx   d 4 03 22 FD 35  Length = 0 BitCount = 101 ID = 416946929x  // 2  OTP(32) Atom F1->1A : SF Length:   03         [ 22 FD 35 ]
  18.620149 2  18DAF11Ax       Rx   d 8 07 62 FD 35 FF E9 00 00  Length = 0 BitCount = 138 ID = 417001754x  // 2  OTP(33) Atom 1A->F1 : SF Length:   07         [ 62 FD 35 FF E9 00 00 ]
  18.623437 2  18DA1AF1x       Tx   d 4 03 22 FD 35  Length = 0 BitCount = 101 ID = 416946929x  // 2  OTP(34) Atom F1->1A : SF Length:   03         [ 22 FD 35 ]
  18.630108 2  18DAF11Ax       Rx   d 8 07 62 FD 35 FF E9 00 00  Length = 0 BitCount = 138 ID = 417001754x  // 2  OTP(35) Atom 1A->F1 : SF Length:   07         [ 62 FD 35 FF E9 00 00 ]
  18.633500 2  18DA1AF1x       Tx   d 4 03 22 FD 35  Length = 0 BitCount = 101 ID = 416946929x  // 2  OTP(36) Atom F1->1A : SF Length:   03         [ 22 FD 35 ]
  18.640108 2  18DAF11Ax       Rx   d 8 07 62 FD 35 FF E9 00 00  Length = 0 BitCount = 138 ID = 417001754x  // 2  OTP(37) Atom 1A->F1 : SF Length:   07         [ 62 FD 35 FF E9 00 00 ]
  18.643332 2  18DA1AF1x       Tx   d 4 03 22 FD 35  Length = 0 BitCount = 101 ID = 416946929x  // 2  OTP(38) Atom F1->1A : SF Length:   03         [ 22 FD 35 ]
  18.650139 2  18DAF11Ax       Rx   d 8 07 62 FD 35 FF E9 00 00  Length = 0 BitCount = 138 ID = 417001754x  // 2  OTP(39) Atom 1A->F1 : SF Length:   07         [ 62 FD 35 FF E9 00 00 ]
  18.653299 2  18DA1AF1x       Tx   d 4 03 22 FD 35  Length = 0 BitCount = 101 ID = 416946929x  // 2  OTP(3A) Atom F1->1A : SF Length:   03         [ 22 FD 35 ]
  18.660115 2  18DAF11Ax       Rx   d 8 07 62 FD 35 FF E9 00 00  Length = 0 BitCount = 138 ID = 417001754x  // 2  OTP(3B) Atom 1A->F1 : SF Length:   07         [ 62 FD 35 FF E9 00 00 ]
  18.661315 2  5B2             Rx   d 2 00 00  Length = 504000 BitCount = 67 ID = 1458
  18.662770 2  3D2             Rx   d 8 00 00 00 00 00 0C 00 00  Length = 952000 BitCount = 123 ID = 978
  18.663585 2  18DA1AF1x       Tx   d 4 03 22 FD 35  Length = 0 BitCount = 101 ID = 416946929x  // 2  OTP(3C) Atom F1->1A : SF Length:   03         [ 22 FD 35 ]
  18.670113 2  18DAF11Ax       Rx   d 8 07 62 FD 35 FF E9 00 00  Length = 0 BitCount = 138 ID = 417001754x  // 2  OTP(3D) Atom 1A->F1 : SF Length:   07         [ 62 FD 35 FF E9 00 00 ]
  18.673393 2  18DA1AF1x       Tx   d 4 03 22 FD 35  Length = 0 BitCount = 101 ID = 416946929x  // 2  OTP(3E) Atom F1->1A : SF Length:   03         [ 22 FD 35 ]
  18.677249 2  2A0             Tx   d 4 00 00 00 00  Length = 680000 BitCount = 88 ID = 672
  18.680104 2  18DAF11Ax       Rx   d 8 07 62 FD 35 FF E9 00 00  Length = 0 BitCount = 138 ID = 417001754x  // 2  OTP(3F) Atom 1A->F1 : SF Length:   07         [ 62 FD 35 FF E9 00 00 ]
  18.683392 2  18DA1AF1x       Tx   d 4 03 22 FD 35  Length = 0 BitCount = 101 ID = 416946929x  // 2  OTP(40) Atom F1->1A : SF Length:   03         [ 22 FD 35 ]
  18.690136 2  18DAF11Ax       Rx   d 8 07 62 FD 35 FF E9 00 00  Length = 0 BitCount = 138 ID = 417001754x  // 2  OTP(41) Atom 1A->F1 : SF Length:   07         [ 62 FD 35 FF E9 00 00 ]
  18.693416 2  18DA1AF1x       Tx   d 4 03 22 FD 35  Length = 0 BitCount = 101 ID = 416946929x  // 2  OTP(42) Atom F1->1A : SF Length:   03         [ 22 FD 35 ]
  18.700127 2  18DAF11Ax       Rx   d 8 07 62 FD 35 FF E9 00 00  Length = 0 BitCount = 138 ID = 417001754x  // 2  OTP(43) Atom 1A->F1 : SF Length:   07         [ 62 FD 35 FF E9 00 00 ]
  18.705375 2  18DA1AF1x       Tx   d 4 03 22 FD 35  Length = 0 BitCount = 101 ID = 416946929x  // 2  OTP(44) Atom F1->1A : SF Length:   03         [ 22 FD 35 ]
  18.710111 2  18DAF11Ax       Rx   d 8 07 62 FD 35 FF E9 00 00  Length = 0 BitCount = 138 ID = 417001754x  // 2  OTP(45) Atom 1A->F1 : SF Length:   07         [ 62 FD 35 FF E9 00 00 ]
  18.713414 2  18DA1AF1x       Tx   d 4 03 22 FD 35  Length = 0 BitCount = 101 ID = 416946929x  // 2  OTP(46) Atom F1->1A : SF Length:   03         [ 22 FD 35 ]
  18.720110 2  18DAF11Ax       Rx   d 8 07 62 FD 35 FF E9 00 00  Length = 0 BitCount = 138 ID = 417001754x  // 2  OTP(47) Atom 1A->F1 : SF Length:   07         [ 62 FD 35 FF E9 00 00 ]
  18.725350 2  18DA1AF1x       Tx   d 4 03 22 FD 35  Length = 0 BitCount = 101 ID = 416946929x  // 2  OTP(48) Atom F1->1A : SF Length:   03         [ 22 FD 35 ]
  18.730141 2  18DAF11Ax       Rx   d 8 07 62 FD 35 FF E9 00 00  Length = 0 BitCount = 138 ID = 417001754x  // 2  OTP(49) Atom 1A->F1 : SF Length:   07         [ 62 FD 35 FF E9 00 00 ]
  18.733685 2  18DA1AF1x       Tx   d 4 03 22 FD 35  Length = 0 BitCount = 101 ID = 416946929x  // 2  OTP(4A) Atom F1->1A : SF Length:   03         [ 22 FD 35 ]
  18.740109 2  18DAF11Ax       Rx   d 8 07 62 FD 35 FF E9 00 00  Length = 0 BitCount = 138 ID = 417001754x  // 2  OTP(4B) Atom 1A->F1 : SF Length:   07         [ 62 FD 35 FF E9 00 00 ]
  18.745372 2  18DA1AF1x       Tx   d 4 03 22 FD 35  Length = 0 BitCount = 101 ID = 416946929x  // 2  OTP(4C) Atom F1->1A : SF Length:   03         [ 22 FD 35 ]
  18.750124 2  18DAF11Ax       Rx   d 8 07 62 FD 35 FF E9 00 00  Length = 0 BitCount = 138 ID = 417001754x  // 2  OTP(4D) Atom 1A->F1 : SF Length:   07         [ 62 FD 35 FF E9 00 00 ]
  18.753388 2  18DA1AF1x       Tx   d 4 03 22 FD 35  Length = 0 BitCount = 101 ID = 416946929x  // 2  OTP(4E) Atom F1->1A : SF Length:   03         [ 22 FD 35 ]
  18.760099 2  18DAF11Ax       Rx   d 8 07 62 FD 35 FF E9 00 00  Length = 0 BitCount = 138 ID = 417001754x  // 2  OTP(4F) Atom 1A->F1 : SF Length:   07         [ 62 FD 35 FF E9 00 00 ]
  18.761314 2  5B2             Rx   d 2 00 00  Length = 504000 BitCount = 67 ID = 1458
  18.763473 2  18DA1AF1x       Tx   d 4 03 22 FD 35  Length = 0 BitCount = 101 ID = 416946929x  // 2  OTP(50) Atom F1->1A : SF Length:   03         [ 22 FD 35 ]
  18.770129 2  18DAF11Ax       Rx   d 8 07 62 FD 35 FF E9 00 00  Length = 0 BitCount = 138 ID = 417001754x  // 2  OTP(51) Atom 1A->F1 : SF Length:   07         [ 62 FD 35 FF E9 00 00 ]
  18.773313 2  18DA1AF1x       Tx   d 4 03 22 FD 35  Length = 0 BitCount = 101 ID = 416946929x  // 2  OTP(52) Atom F1->1A : SF Length:   03         [ 22 FD 35 ]
  18.777160 2  2A0             Tx   d 4 00 00 00 00  Length = 680000 BitCount = 88 ID = 672
  18.780144 2  18DAF11Ax       Rx   d 8 07 62 FD 35 FF E9 00 00  Length = 0 BitCount = 138 ID = 417001754x  // 2  OTP(53) Atom 1A->F1 : SF Length:   07         [ 62 FD 35 FF E9 00 00 ]
  18.783312 2  18DA1AF1x       Tx   d 4 03 22 FD 35  Length = 0 BitCount = 101 ID = 416946929x  // 2  OTP(54) Atom F1->1A : SF Length:   03         [ 22 FD 35 ]
  18.790096 2  18DAF11Ax       Rx   d 8 07 62 FD 35 FF E9 00 00  Length = 0 BitCount = 138 ID = 417001754x  // 2  OTP(55) Atom 1A->F1 : SF Length:   07         [ 62 FD 35 FF E9 00 00 ]
  18.793295 2  18DA1AF1x       Tx   d 4 03 22 FD 35  Length = 0 BitCount = 101 ID = 416946929x  // 2  OTP(56) Atom F1->1A : SF Length:   03         [ 22 FD 35 ]
  18.800103 2  18DAF11Ax       Rx   d 8 07 62 FD 35 FF E9 00 00  Length = 0 BitCount = 138 ID = 417001754x  // 2  OTP(57) Atom 1A->F1 : SF Length:   07         [ 62 FD 35 FF E9 00 00 ]
  18.805319 2  18DA1AF1x       Tx   d 4 03 22 FD 35  Length = 0 BitCount = 101 ID = 416946929x  // 2  OTP(58) Atom F1->1A : SF Length:   03         [ 22 FD 35 ]
  18.810150 2  18DAF11Ax       Rx   d 8 07 62 FD 35 FF E9 00 00  Length = 0 BitCount = 138 ID = 417001754x  // 2  OTP(59) Atom 1A->F1 : SF Length:   07         [ 62 FD 35 FF E9 00 00 ]
  18.813350 2  18DA1AF1x       Tx   d 4 03 22 FD 35  Length = 0 BitCount = 101 ID = 416946929x  // 2  OTP(5A) Atom F1->1A : SF Length:   03         [ 22 FD 35 ]
  18.820118 2  18DAF11Ax       Rx   d 8 07 62 FD 35 FF E9 00 00  Length = 0 BitCount = 138 ID = 417001754x  // 2  OTP(5B) Atom 1A->F1 : SF Length:   07         [ 62 FD 35 FF E9 00 00 ]
  18.825246 2  18DA1AF1x       Tx   d 4 03 22 FD 35  Length = 0 BitCount = 101 ID = 416946929x  // 2  OTP(5C) Atom F1->1A : SF Length:   03         [ 22 FD 35 ]
  18.827677 2  380             Tx   d 8 00 04 40 00 00 00 00 00  Length = 984000 BitCount = 126 ID = 896
  18.830101 2  18DAF11Ax       Rx   d 8 07 62 FD 35 FF E9 00 00  Length = 0 BitCount = 138 ID = 417001754x  // 2  OTP(5D) Atom 1A->F1 : SF Length:   07         [ 62 FD 35 FF E9 00 00 ]
