date Tue Nov 17 12:06:16.508 pm 2015
base hex  timestamps absolute
internal events logged
// version 8.5.0
   0.000800 CAN 1 Status:chip status error active
   0.011393 1  ErrorFrame	ECC: 11011001
   0.011393 CAN 1 Status:chip status error active  - TxErr: 8 RxErr: 0
   0.012249 1  ErrorFrame	ECC: 11011001
   0.012249 CAN 1 Status:chip status error active  - TxErr: 16 RxErr: 0
   0.013105 1  ErrorFrame	ECC: 11011001
   0.013105 CAN 1 Status:chip status error active  - TxErr: 24 RxErr: 0
   0.013961 1  ErrorFrame	ECC: 11011001
   0.013961 CAN 1 Status:chip status error active  - TxErr: 32 RxErr: 0
   0.014817 1  ErrorFrame	ECC: 11011001
   0.014817 CAN 1 Status:chip status error active  - TxErr: 40 RxErr: 0
   0.015673 1  ErrorFrame	ECC: 11011001
   0.015673 CAN 1 Status:chip status error active  - TxErr: 48 RxErr: 0
   0.016529 1  ErrorFrame	ECC: 11011001
   0.016529 CAN 1 Status:chip status error active  - TxErr: 56 RxErr: 0
   0.017385 1  ErrorFrame	ECC: 11011001
   0.017385 CAN 1 Status:chip status error active  - TxErr: 64 RxErr: 0
   0.018241 1  ErrorFrame	ECC: 11011001
   0.018241 CAN 1 Status:chip status error active  - TxErr: 72 RxErr: 0
   0.019097 1  ErrorFrame	ECC: 11011001
   0.019097 CAN 1 Status:chip status error active  - TxErr: 80 RxErr: 0
   0.019953 1  ErrorFrame	ECC: 11011001
   0.019953 CAN 1 Status:chip status error active  - TxErr: 88 RxErr: 0
   0.020809 1  ErrorFrame	ECC: 11011001
   0.020809 CAN 1 Status:chip status warning level - TxErr: 96 RxErr: 0
   0.020809 CAN 1 Status:chip status warning level - TxErr: 96 RxErr: 0
   0.021665 1  ErrorFrame	ECC: 11011001
   0.021665 CAN 1 Status:chip status warning level - TxErr: 104 RxErr: 0
   0.022521 1  ErrorFrame	ECC: 11011001
   0.022521 CAN 1 Status:chip status warning level - TxErr: 112 RxErr: 0
   0.023377 1  ErrorFrame	ECC: 11011001
   0.023377 CAN 1 Status:chip status warning level - TxErr: 120 RxErr: 0
   0.024233 1  ErrorFrame	ECC: 11011001
   0.024233 CAN 1 Status:chip status error passive - TxErr: 128 RxErr: 0
   0.024233 CAN 1 Status:chip status error passive - TxErr: 128 RxErr: 0
   0.025153 1  ErrorFrame	ECC: 11011001
   0.025153 CAN 1 Status:chip status error passive - TxErr: 128 RxErr: 0
   0.026073 1  ErrorFrame	ECC: 11011001
   0.026073 CAN 1 Status:chip status error passive - TxErr: 128 RxErr: 0
   0.026993 1  ErrorFrame	ECC: 11011001
   0.026993 CAN 1 Status:chip status error passive - TxErr: 128 RxErr: 0
   0.027913 1  ErrorFrame	ECC: 11011001
   0.027913 CAN 1 Status:chip status error passive - TxErr: 128 RxErr: 0
   0.028833 1  ErrorFrame	ECC: 11011001
   0.028833 CAN 1 Status:chip status error passive - TxErr: 128 RxErr: 0
   0.029753 1  ErrorFrame	ECC: 11011001
   0.029753 CAN 1 Status:chip status error passive - TxErr: 128 RxErr: 0
   0.030673 1  ErrorFrame	ECC: 11011001
   0.030673 CAN 1 Status:chip status error passive - TxErr: 128 RxErr: 0
   0.031593 1  ErrorFrame	ECC: 11011001
   0.031593 CAN 1 Status:chip status error passive - TxErr: 128 RxErr: 0
   0.032513 1  ErrorFrame	ECC: 11011001
   0.032513 CAN 1 Status:chip status error passive - TxErr: 128 RxErr: 0
   0.033433 1  ErrorFrame	ECC: 11011001
   0.033433 CAN 1 Status:chip status error passive - TxErr: 128 RxErr: 0
   0.034353 1  ErrorFrame	ECC: 11011001
   0.034353 CAN 1 Status:chip status error passive - TxErr: 128 RxErr: 0
   0.035273 1  ErrorFrame	ECC: 11011001
   0.035273 CAN 1 Status:chip status error passive - TxErr: 128 RxErr: 0
   0.036193 1  ErrorFrame	ECC: 11011001
   0.036193 CAN 1 Status:chip status error passive - TxErr: 128 RxErr: 0
   0.037113 1  ErrorFrame	ECC: 11011001
   0.037113 CAN 1 Status:chip status error passive - TxErr: 128 RxErr: 0
   0.038033 1  ErrorFrame	ECC: 11011001
   0.038033 CAN 1 Status:chip status error passive - TxErr: 128 RxErr: 0
   0.038953 1  ErrorFrame	ECC: 11011001
   0.038953 CAN 1 Status:chip status error passive - TxErr: 128 RxErr: 0
   0.039873 1  ErrorFrame	ECC: 11011001
   0.039873 CAN 1 Status:chip status error passive - TxErr: 128 RxErr: 0
   0.040793 1  ErrorFrame	ECC: 11011001
   0.040793 CAN 1 Status:chip status error passive - TxErr: 128 RxErr: 0
   0.041776 1  18DA1AF1x       Tx   d 4 03 22 FD 35  Length = 0 BitCount = 101 ID = 416946929x  // 1  OTP(01) Atom F1->1A : SF Length:   03         [ 22 FD 35 ]
   0.041776 CAN 1 Status:chip status warning level - TxErr: 127 RxErr: 0
   0.042600 1  18DA1AF1x       Tx   d 4 03 22 FD 35  Length = 0 BitCount = 101 ID = 416946929x  // 1  OTP(02) Atom F1->1A : SF Length:   03         [ 22 FD 35 ]
   0.043416 1  18DA1AF1x       Tx   d 4 03 22 FD 35  Length = 0 BitCount = 101 ID = 416946929x  // 1  OTP(03) Atom F1->1A : SF Length:   03         [ 22 FD 35 ]
   0.044232 1  18DA1AF1x       Tx   d 4 03 22 FD 35  Length = 0 BitCount = 101 ID = 416946929x  // 1  OTP(04) Atom F1->1A : SF Length:   03         [ 22 FD 35 ]
   0.051424 1  18DA1AF1x       Tx   d 4 03 22 FD 35  Length = 0 BitCount = 101 ID = 416946929x  // 1  OTP(05) Atom F1->1A : SF Length:   03         [ 22 FD 35 ]
   0.061432 1  18DA1AF1x       Tx   d 4 03 22 FD 35  Length = 0 BitCount = 101 ID = 416946929x  // 1  OTP(06) Atom F1->1A : SF Length:   03         [ 22 FD 35 ]
   0.071423 1  18DA1AF1x       Tx   d 4 03 22 FD 35  Length = 0 BitCount = 101 ID = 416946929x  // 1  OTP(07) Atom F1->1A : SF Length:   03         [ 22 FD 35 ]
   0.081423 1  18DA1AF1x       Tx   d 4 03 22 FD 35  Length = 0 BitCount = 101 ID = 416946929x  // 1  OTP(08) Atom F1->1A : SF Length:   03         [ 22 FD 35 ]
   0.091423 1  18DA1AF1x       Tx   d 4 03 22 FD 35  Length = 0 BitCount = 101 ID = 416946929x  // 1  OTP(09) Atom F1->1A : SF Length:   03         [ 22 FD 35 ]
   0.101423 1  18DA1AF1x       Tx   d 4 03 22 FD 35  Length = 0 BitCount = 101 ID = 416946929x  // 1  OTP(0A) Atom F1->1A : SF Length:   03         [ 22 FD 35 ]
   0.111479 1  18DA1AF1x       Tx   d 4 03 22 FD 35  Length = 0 BitCount = 101 ID = 416946929x  // 1  OTP(0B) Atom F1->1A : SF Length:   03         [ 22 FD 35 ]
   0.121423 1  18DA1AF1x       Tx   d 4 03 22 FD 35  Length = 0 BitCount = 101 ID = 416946929x  // 1  OTP(0C) Atom F1->1A : SF Length:   03         [ 22 FD 35 ]
   0.131423 1  18DA1AF1x       Tx   d 4 03 22 FD 35  Length = 0 BitCount = 101 ID = 416946929x  // 1  OTP(0D) Atom F1->1A : SF Length:   03         [ 22 FD 35 ]
   0.141423 1  18DA1AF1x       Tx   d 4 03 22 FD 35  Length = 0 BitCount = 101 ID = 416946929x  // 1  OTP(0E) Atom F1->1A : SF Length:   03         [ 22 FD 35 ]
   0.151423 1  18DA1AF1x       Tx   d 4 03 22 FD 35  Length = 0 BitCount = 101 ID = 416946929x  // 1  OTP(0F) Atom F1->1A : SF Length:   03         [ 22 FD 35 ]
   0.161423 1  18DA1AF1x       Tx   d 4 03 22 FD 35  Length = 0 BitCount = 101 ID = 416946929x  // 1  OTP(10) Atom F1->1A : SF Length:   03         [ 22 FD 35 ]
   0.171423 1  18DA1AF1x       Tx   d 4 03 22 FD 35  Length = 0 BitCount = 101 ID = 416946929x  // 1  OTP(11) Atom F1->1A : SF Length:   03         [ 22 FD 35 ]
   0.181423 1  18DA1AF1x       Tx   d 4 03 22 FD 35  Length = 0 BitCount = 101 ID = 416946929x  // 1  OTP(12) Atom F1->1A : SF Length:   03         [ 22 FD 35 ]
   0.191423 1  18DA1AF1x       Tx   d 4 03 22 FD 35  Length = 0 BitCount = 101 ID = 416946929x  // 1  OTP(13) Atom F1->1A : SF Length:   03         [ 22 FD 35 ]
   0.201422 1  18DA1AF1x       Tx   d 4 03 22 FD 35  Length = 0 BitCount = 101 ID = 416946929x  // 1  OTP(14) Atom F1->1A : SF Length:   03         [ 22 FD 35 ]
   0.211406 1  18DA1AF1x       Tx   d 4 03 22 FD 35  Length = 0 BitCount = 101 ID = 416946929x  // 1  OTP(15) Atom F1->1A : SF Length:   03         [ 22 FD 35 ]
   0.221422 1  18DA1AF1x       Tx   d 4 03 22 FD 35  Length = 0 BitCount = 101 ID = 416946929x  // 1  OTP(16) Atom F1->1A : SF Length:   03         [ 22 FD 35 ]
   0.231486 1  18DA1AF1x       Tx   d 4 03 22 FD 35  Length = 0 BitCount = 101 ID = 416946929x  // 1  OTP(17) Atom F1->1A : SF Length:   03         [ 22 FD 35 ]
   0.241422 1  18DA1AF1x       Tx   d 4 03 22 FD 35  Length = 0 BitCount = 101 ID = 416946929x  // 1  OTP(18) Atom F1->1A : SF Length:   03         [ 22 FD 35 ]
   0.251430 1  18DA1AF1x       Tx   d 4 03 22 FD 35  Length = 0 BitCount = 101 ID = 416946929x  // 1  OTP(19) Atom F1->1A : SF Length:   03         [ 22 FD 35 ]
   0.261421 1  18DA1AF1x       Tx   d 4 03 22 FD 35  Length = 0 BitCount = 101 ID = 416946929x  // 1  OTP(1A) Atom F1->1A : SF Length:   03         [ 22 FD 35 ]
   0.271429 1  18DA1AF1x       Tx   d 4 03 22 FD 35  Length = 0 BitCount = 101 ID = 416946929x  // 1  OTP(1B) Atom F1->1A : SF Length:   03         [ 22 FD 35 ]
   0.281429 1  18DA1AF1x       Tx   d 4 03 22 FD 35  Length = 0 BitCount = 101 ID = 416946929x  // 1  OTP(1C) Atom F1->1A : SF Length:   03         [ 22 FD 35 ]
   0.291429 1  18DA1AF1x       Tx   d 4 03 22 FD 35  Length = 0 BitCount = 101 ID = 416946929x  // 1  OTP(1D) Atom F1->1A : SF Length:   03         [ 22 FD 35 ]
   0.301429 1  18DA1AF1x       Tx   d 4 03 22 FD 35  Length = 0 BitCount = 101 ID = 416946929x  // 1  OTP(1E) Atom F1->1A : SF Length:   03         [ 22 FD 35 ]
   0.311485 1  18DA1AF1x       Tx   d 4 03 22 FD 35  Length = 0 BitCount = 101 ID = 416946929x  // 1  OTP(1F) Atom F1->1A : SF Length:   03         [ 22 FD 35 ]
   0.321485 1  18DA1AF1x       Tx   d 4 03 22 FD 35  Length = 0 BitCount = 101 ID = 416946929x  // 1  OTP(20) Atom F1->1A : SF Length:   03         [ 22 FD 35 ]
   0.331429 1  18DA1AF1x       Tx   d 4 03 22 FD 35  Length = 0 BitCount = 101 ID = 416946929x  // 1  OTP(21) Atom F1->1A : SF Length:   03         [ 22 FD 35 ]
   0.331429 CAN 1 Status:chip status error active  - TxErr: 95 RxErr: 0
   0.341429 1  18DA1AF1x       Tx   d 4 03 22 FD 35  Length = 0 BitCount = 101 ID = 416946929x  // 1  OTP(22) Atom F1->1A : SF Length:   03         [ 22 FD 35 ]
   0.351429 1  18DA1AF1x       Tx   d 4 03 22 FD 35  Length = 0 BitCount = 101 ID = 416946929x  // 1  OTP(23) Atom F1->1A : SF Length:   03         [ 22 FD 35 ]
   0.361428 1  18DA1AF1x       Tx   d 4 03 22 FD 35  Length = 0 BitCount = 101 ID = 416946929x  // 1  OTP(24) Atom F1->1A : SF Length:   03         [ 22 FD 35 ]
   0.371428 1  18DA1AF1x       Tx   d 4 03 22 FD 35  Length = 0 BitCount = 101 ID = 416946929x  // 1  OTP(25) Atom F1->1A : SF Length:   03         [ 22 FD 35 ]
   0.381428 1  18DA1AF1x       Tx   d 4 03 22 FD 35  Length = 0 BitCount = 101 ID = 416946929x  // 1  OTP(26) Atom F1->1A : SF Length:   03         [ 22 FD 35 ]
   0.391428 1  18DA1AF1x       Tx   d 4 03 22 FD 35  Length = 0 BitCount = 101 ID = 416946929x  // 1  OTP(27) Atom F1->1A : SF Length:   03         [ 22 FD 35 ]
   0.401428 1  18DA1AF1x       Tx   d 4 03 22 FD 35  Length = 0 BitCount = 101 ID = 416946929x  // 1  OTP(28) Atom F1->1A : SF Length:   03         [ 22 FD 35 ]
   0.411428 1  18DA1AF1x       Tx   d 4 03 22 FD 35  Length = 0 BitCount = 101 ID = 416946929x  // 1  OTP(29) Atom F1->1A : SF Length:   03         [ 22 FD 35 ]
   0.421427 1  18DA1AF1x       Tx   d 4 03 22 FD 35  Length = 0 BitCount = 101 ID = 416946929x  // 1  OTP(2A) Atom F1->1A : SF Length:   03         [ 22 FD 35 ]
   0.431427 1  18DA1AF1x       Tx   d 4 03 22 FD 35  Length = 0 BitCount = 101 ID = 416946929x  // 1  OTP(2B) Atom F1->1A : SF Length:   03         [ 22 FD 35 ]
   0.441427 1  18DA1AF1x       Tx   d 4 03 22 FD 35  Length = 0 BitCount = 101 ID = 416946929x  // 1  OTP(2C) Atom F1->1A : SF Length:   03         [ 22 FD 35 ]
   0.451427 1  18DA1AF1x       Tx   d 4 03 22 FD 35  Length = 0 BitCount = 101 ID = 416946929x  // 1  OTP(2D) Atom F1->1A : SF Length:   03         [ 22 FD 35 ]
   0.461427 1  18DA1AF1x       Tx   d 4 03 22 FD 35  Length = 0 BitCount = 101 ID = 416946929x  // 1  OTP(2E) Atom F1->1A : SF Length:   03         [ 22 FD 35 ]
   0.471427 1  18DA1AF1x       Tx   d 4 03 22 FD 35  Length = 0 BitCount = 101 ID = 416946929x  // 1  OTP(2F) Atom F1->1A : SF Length:   03         [ 22 FD 35 ]
   0.481466 1  18DA1AF1x       Tx   d 4 03 22 FD 35  Length = 0 BitCount = 101 ID = 416946929x  // 1  OTP(30) Atom F1->1A : SF Length:   03         [ 22 FD 35 ]
   0.491426 1  18DA1AF1x       Tx   d 4 03 22 FD 35  Length = 0 BitCount = 101 ID = 416946929x  // 1  OTP(31) Atom F1->1A : SF Length:   03         [ 22 FD 35 ]
   0.501426 1  18DA1AF1x       Tx   d 4 03 22 FD 35  Length = 0 BitCount = 101 ID = 416946929x  // 1  OTP(32) Atom F1->1A : SF Length:   03         [ 22 FD 35 ]
   0.511658 1  18DA1AF1x       Tx   d 4 03 22 FD 35  Length = 0 BitCount = 101 ID = 416946929x  // 1  OTP(33) Atom F1->1A : SF Length:   03         [ 22 FD 35 ]
   0.521426 1  18DA1AF1x       Tx   d 4 03 22 FD 35  Length = 0 BitCount = 101 ID = 416946929x  // 1  OTP(34) Atom F1->1A : SF Length:   03         [ 22 FD 35 ]
   0.531426 1  18DA1AF1x       Tx   d 4 03 22 FD 35  Length = 0 BitCount = 101 ID = 416946929x  // 1  OTP(35) Atom F1->1A : SF Length:   03         [ 22 FD 35 ]
   0.541426 1  18DA1AF1x       Tx   d 4 03 22 FD 35  Length = 0 BitCount = 101 ID = 416946929x  // 1  OTP(36) Atom F1->1A : SF Length:   03         [ 22 FD 35 ]
   0.551426 1  18DA1AF1x       Tx   d 4 03 22 FD 35  Length = 0 BitCount = 101 ID = 416946929x  // 1  OTP(37) Atom F1->1A : SF Length:   03         [ 22 FD 35 ]
   0.561426 1  18DA1AF1x       Tx   d 4 03 22 FD 35  Length = 0 BitCount = 101 ID = 416946929x  // 1  OTP(38) Atom F1->1A : SF Length:   03         [ 22 FD 35 ]
   0.571426 1  18DA1AF1x       Tx   d 4 03 22 FD 35  Length = 0 BitCount = 101 ID = 416946929x  // 1  OTP(39) Atom F1->1A : SF Length:   03         [ 22 FD 35 ]
   0.581426 1  18DA1AF1x       Tx   d 4 03 22 FD 35  Length = 0 BitCount = 101 ID = 416946929x  // 1  OTP(3A) Atom F1->1A : SF Length:   03         [ 22 FD 35 ]
   0.591426 1  18DA1AF1x       Tx   d 4 03 22 FD 35  Length = 0 BitCount = 101 ID = 416946929x  // 1  OTP(3B) Atom F1->1A : SF Length:   03         [ 22 FD 35 ]
   0.601426 1  18DA1AF1x       Tx   d 4 03 22 FD 35  Length = 0 BitCount = 101 ID = 416946929x  // 1  OTP(3C) Atom F1->1A : SF Length:   03         [ 22 FD 35 ]
   0.611425 1  18DA1AF1x       Tx   d 4 03 22 FD 35  Length = 0 BitCount = 101 ID = 416946929x  // 1  OTP(3D) Atom F1->1A : SF Length:   03         [ 22 FD 35 ]
   0.621409 1  18DA1AF1x       Tx   d 4 03 22 FD 35  Length = 0 BitCount = 101 ID = 416946929x  // 1  OTP(3E) Atom F1->1A : SF Length:   03         [ 22 FD 35 ]
   0.631425 1  18DA1AF1x       Tx   d 4 03 22 FD 35  Length = 0 BitCount = 101 ID = 416946929x  // 1  OTP(3F) Atom F1->1A : SF Length:   03         [ 22 FD 35 ]
   0.641409 1  18DA1AF1x       Tx   d 4 03 22 FD 35  Length = 0 BitCount = 101 ID = 416946929x  // 1  OTP(40) Atom F1->1A : SF Length:   03         [ 22 FD 35 ]
   0.651425 1  18DA1AF1x       Tx   d 4 03 22 FD 35  Length = 0 BitCount = 101 ID = 416946929x  // 1  OTP(41) Atom F1->1A : SF Length:   03         [ 22 FD 35 ]
   0.661425 1  18DA1AF1x       Tx   d 4 03 22 FD 35  Length = 0 BitCount = 101 ID = 416946929x  // 1  OTP(42) Atom F1->1A : SF Length:   03         [ 22 FD 35 ]
   0.671408 1  18DA1AF1x       Tx   d 4 03 22 FD 35  Length = 0 BitCount = 101 ID = 416946929x  // 1  OTP(43) Atom F1->1A : SF Length:   03         [ 22 FD 35 ]
   0.681408 1  18DA1AF1x       Tx   d 4 03 22 FD 35  Length = 0 BitCount = 101 ID = 416946929x  // 1  OTP(44) Atom F1->1A : SF Length:   03         [ 22 FD 35 ]
   0.691408 1  18DA1AF1x       Tx   d 4 03 22 FD 35  Length = 0 BitCount = 101 ID = 416946929x  // 1  OTP(45) Atom F1->1A : SF Length:   03         [ 22 FD 35 ]
   0.701408 1  18DA1AF1x       Tx   d 4 03 22 FD 35  Length = 0 BitCount = 101 ID = 416946929x  // 1  OTP(46) Atom F1->1A : SF Length:   03         [ 22 FD 35 ]
   0.711464 1  18DA1AF1x       Tx   d 4 03 22 FD 35  Length = 0 BitCount = 101 ID = 416946929x  // 1  OTP(47) Atom F1->1A : SF Length:   03         [ 22 FD 35 ]
   0.721408 1  18DA1AF1x       Tx   d 4 03 22 FD 35  Length = 0 BitCount = 101 ID = 416946929x  // 1  OTP(48) Atom F1->1A : SF Length:   03         [ 22 FD 35 ]
   0.731432 1  18DA1AF1x       Tx   d 4 03 22 FD 35  Length = 0 BitCount = 101 ID = 416946929x  // 1  OTP(49) Atom F1->1A : SF Length:   03         [ 22 FD 35 ]
   0.741408 1  18DA1AF1x       Tx   d 4 03 22 FD 35  Length = 0 BitCount = 101 ID = 416946929x  // 1  OTP(4A) Atom F1->1A : SF Length:   03         [ 22 FD 35 ]
   0.751408 1  18DA1AF1x       Tx   d 4 03 22 FD 35  Length = 0 BitCount = 101 ID = 416946929x  // 1  OTP(4B) Atom F1->1A : SF Length:   03         [ 22 FD 35 ]
   0.761408 1  18DA1AF1x       Tx   d 4 03 22 FD 35  Length = 0 BitCount = 101 ID = 416946929x  // 1  OTP(4C) Atom F1->1A : SF Length:   03         [ 22 FD 35 ]
   0.771408 1  18DA1AF1x       Tx   d 4 03 22 FD 35  Length = 0 BitCount = 101 ID = 416946929x  // 1  OTP(4D) Atom F1->1A : SF Length:   03         [ 22 FD 35 ]
   0.781408 1  18DA1AF1x       Tx   d 4 03 22 FD 35  Length = 0 BitCount = 101 ID = 416946929x  // 1  OTP(4E) Atom F1->1A : SF Length:   03         [ 22 FD 35 ]
   0.791408 1  18DA1AF1x       Tx   d 4 03 22 FD 35  Length = 0 BitCount = 101 ID = 416946929x  // 1  OTP(4F) Atom F1->1A : SF Length:   03         [ 22 FD 35 ]
   0.801407 1  18DA1AF1x       Tx   d 4 03 22 FD 35  Length = 0 BitCount = 101 ID = 416946929x  // 1  OTP(50) Atom F1->1A : SF Length:   03         [ 22 FD 35 ]
   0.811407 1  18DA1AF1x       Tx   d 4 03 22 FD 35  Length = 0 BitCount = 101 ID = 416946929x  // 1  OTP(51) Atom F1->1A : SF Length:   03         [ 22 FD 35 ]
   0.821407 1  18DA1AF1x       Tx   d 4 03 22 FD 35  Length = 0 BitCount = 101 ID = 416946929x  // 1  OTP(52) Atom F1->1A : SF Length:   03         [ 22 FD 35 ]
   0.831407 1  18DA1AF1x       Tx   d 4 03 22 FD 35  Length = 0 BitCount = 101 ID = 416946929x  // 1  OTP(53) Atom F1->1A : SF Length:   03         [ 22 FD 35 ]
   0.841407 1  18DA1AF1x       Tx   d 4 03 22 FD 35  Length = 0 BitCount = 101 ID = 416946929x  // 1  OTP(54) Atom F1->1A : SF Length:   03         [ 22 FD 35 ]
   0.851407 1  18DA1AF1x       Tx   d 4 03 22 FD 35  Length = 0 BitCount = 101 ID = 416946929x  // 1  OTP(55) Atom F1->1A : SF Length:   03         [ 22 FD 35 ]
   0.861406 1  18DA1AF1x       Tx   d 4 03 22 FD 35  Length = 0 BitCount = 101 ID = 416946929x  // 1  OTP(56) Atom F1->1A : SF Length:   03         [ 22 FD 35 ]
   0.871406 1  18DA1AF1x       Tx   d 4 03 22 FD 35  Length = 0 BitCount = 101 ID = 416946929x  // 1  OTP(57) Atom F1->1A : SF Length:   03         [ 22 FD 35 ]
   0.881406 1  18DA1AF1x       Tx   d 4 03 22 FD 35  Length = 0 BitCount = 101 ID = 416946929x  // 1  OTP(58) Atom F1->1A : SF Length:   03         [ 22 FD 35 ]
   0.891414 1  18DA1AF1x       Tx   d 4 03 22 FD 35  Length = 0 BitCount = 101 ID = 416946929x  // 1  OTP(59) Atom F1->1A : SF Length:   03         [ 22 FD 35 ]
   0.901414 1  18DA1AF1x       Tx   d 4 03 22 FD 35  Length = 0 BitCount = 101 ID = 416946929x  // 1  OTP(5A) Atom F1->1A : SF Length:   03         [ 22 FD 35 ]
   0.911430 1  18DA1AF1x       Tx   d 4 03 22 FD 35  Length = 0 BitCount = 101 ID = 416946929x  // 1  OTP(5B) Atom F1->1A : SF Length:   03         [ 22 FD 35 ]
   0.921413 1  18DA1AF1x       Tx   d 4 03 22 FD 35  Length = 0 BitCount = 101 ID = 416946929x  // 1  OTP(5C) Atom F1->1A : SF Length:   03         [ 22 FD 35 ]
   0.931413 1  18DA1AF1x       Tx   d 4 03 22 FD 35  Length = 0 BitCount = 101 ID = 416946929x  // 1  OTP(5D) Atom F1->1A : SF Length:   03         [ 22 FD 35 ]
   0.941413 1  18DA1AF1x       Tx   d 4 03 22 FD 35  Length = 0 BitCount = 101 ID = 416946929x  // 1  OTP(5E) Atom F1->1A : SF Length:   03         [ 22 FD 35 ]
   0.951413 1  18DA1AF1x       Tx   d 4 03 22 FD 35  Length = 0 BitCount = 101 ID = 416946929x  // 1  OTP(5F) Atom F1->1A : SF Length:   03         [ 22 FD 35 ]
   0.961413 1  18DA1AF1x       Tx   d 4 03 22 FD 35  Length = 0 BitCount = 101 ID = 416946929x  // 1  OTP(60) Atom F1->1A : SF Length:   03         [ 22 FD 35 ]
   0.971413 1  18DA1AF1x       Tx   d 4 03 22 FD 35  Length = 0 BitCount = 101 ID = 416946929x  // 1  OTP(61) Atom F1->1A : SF Length:   03         [ 22 FD 35 ]
   0.981437 1  18DA1AF1x       Tx   d 4 03 22 FD 35  Length = 0 BitCount = 101 ID = 416946929x  // 1  OTP(62) Atom F1->1A : SF Length:   03         [ 22 FD 35 ]
   0.991429 1  18DA1AF1x       Tx   d 4 03 22 FD 35  Length = 0 BitCount = 101 ID = 416946929x  // 1  OTP(63) Atom F1->1A : SF Length:   03         [ 22 FD 35 ]
   1.000676 CAN 1 Status:chip status error active  - TxErr: 29 RxErr: 0
   1.001429 1  18DA1AF1x       Tx   d 4 03 22 FD 35  Length = 0 BitCount = 101 ID = 416946929x  // 1  OTP(00) Atom F1->1A : SF Length:   03         [ 22 FD 35 ]
   1.011413 1  18DA1AF1x       Tx   d 4 03 22 FD 35  Length = 0 BitCount = 101 ID = 416946929x  // 1  OTP(01) Atom F1->1A : SF Length:   03         [ 22 FD 35 ]
   1.021412 1  18DA1AF1x       Tx   d 4 03 22 FD 35  Length = 0 BitCount = 101 ID = 416946929x  // 1  OTP(02) Atom F1->1A : SF Length:   03         [ 22 FD 35 ]
   1.031412 1  18DA1AF1x       Tx   d 4 03 22 FD 35  Length = 0 BitCount = 101 ID = 416946929x  // 1  OTP(03) Atom F1->1A : SF Length:   03         [ 22 FD 35 ]
   1.041412 1  18DA1AF1x       Tx   d 4 03 22 FD 35  Length = 0 BitCount = 101 ID = 416946929x  // 1  OTP(04) Atom F1->1A : SF Length:   03         [ 22 FD 35 ]
   1.051412 1  18DA1AF1x       Tx   d 4 03 22 FD 35  Length = 0 BitCount = 101 ID = 416946929x  // 1  OTP(05) Atom F1->1A : SF Length:   03         [ 22 FD 35 ]
   1.061412 1  18DA1AF1x       Tx   d 4 03 22 FD 35  Length = 0 BitCount = 101 ID = 416946929x  // 1  OTP(06) Atom F1->1A : SF Length:   03         [ 22 FD 35 ]
   1.071412 1  18DA1AF1x       Tx   d 4 03 22 FD 35  Length = 0 BitCount = 101 ID = 416946929x  // 1  OTP(07) Atom F1->1A : SF Length:   03         [ 22 FD 35 ]
   1.081411 1  18DA1AF1x       Tx   d 4 03 22 FD 35  Length = 0 BitCount = 101 ID = 416946929x  // 1  OTP(08) Atom F1->1A : SF Length:   03         [ 22 FD 35 ]
   1.091411 1  18DA1AF1x       Tx   d 4 03 22 FD 35  Length = 0 BitCount = 101 ID = 416946929x  // 1  OTP(09) Atom F1->1A : SF Length:   03         [ 22 FD 35 ]
   1.101411 1  18DA1AF1x       Tx   d 4 03 22 FD 35  Length = 0 BitCount = 101 ID = 416946929x  // 1  OTP(0A) Atom F1->1A : SF Length:   03         [ 22 FD 35 ]
   1.111467 1  18DA1AF1x       Tx   d 4 03 22 FD 35  Length = 0 BitCount = 101 ID = 416946929x  // 1  OTP(0B) Atom F1->1A : SF Length:   03         [ 22 FD 35 ]
   1.121411 1  18DA1AF1x       Tx   d 4 03 22 FD 35  Length = 0 BitCount = 101 ID = 416946929x  // 1  OTP(0C) Atom F1->1A : SF Length:   03         [ 22 FD 35 ]
   1.131411 1  18DA1AF1x       Tx   d 4 03 22 FD 35  Length = 0 BitCount = 101 ID = 416946929x  // 1  OTP(0D) Atom F1->1A : SF Length:   03         [ 22 FD 35 ]
   1.141411 1  18DA1AF1x       Tx   d 4 03 22 FD 35  Length = 0 BitCount = 101 ID = 416946929x  // 1  OTP(0E) Atom F1->1A : SF Length:   03         [ 22 FD 35 ]
   1.151411 1  18DA1AF1x       Tx   d 4 03 22 FD 35  Length = 0 BitCount = 101 ID = 416946929x  // 1  OTP(0F) Atom F1->1A : SF Length:   03         [ 22 FD 35 ]
   1.161411 1  18DA1AF1x       Tx   d 4 03 22 FD 35  Length = 0 BitCount = 101 ID = 416946929x  // 1  OTP(10) Atom F1->1A : SF Length:   03         [ 22 FD 35 ]
   1.171411 1  18DA1AF1x       Tx   d 4 03 22 FD 35  Length = 0 BitCount = 101 ID = 416946929x  // 1  OTP(11) Atom F1->1A : SF Length:   03         [ 22 FD 35 ]
   1.181411 1  18DA1AF1x       Tx   d 4 03 22 FD 35  Length = 0 BitCount = 101 ID = 416946929x  // 1  OTP(12) Atom F1->1A : SF Length:   03         [ 22 FD 35 ]
   1.191411 1  18DA1AF1x       Tx   d 4 03 22 FD 35  Length = 0 BitCount = 101 ID = 416946929x  // 1  OTP(13) Atom F1->1A : SF Length:   03         [ 22 FD 35 ]
   1.201387 1  18DA1AF1x       Tx   d 4 03 22 FD 35  Length = 0 BitCount = 101 ID = 416946929x  // 1  OTP(14) Atom F1->1A : SF Length:   03         [ 22 FD 35 ]
   1.211418 1  18DA1AF1x       Tx   d 4 03 22 FD 35  Length = 0 BitCount = 101 ID = 416946929x  // 1  OTP(15) Atom F1->1A : SF Length:   03         [ 22 FD 35 ]
   1.221410 1  18DA1AF1x       Tx   d 4 03 22 FD 35  Length = 0 BitCount = 101 ID = 416946929x  // 1  OTP(16) Atom F1->1A : SF Length:   03         [ 22 FD 35 ]
   1.231474 1  18DA1AF1x       Tx   d 4 03 22 FD 35  Length = 0 BitCount = 101 ID = 416946929x  // 1  OTP(17) Atom F1->1A : SF Length:   03         [ 22 FD 35 ]
   1.241410 1  18DA1AF1x       Tx   d 4 03 22 FD 35  Length = 0 BitCount = 101 ID = 416946929x  // 1  OTP(18) Atom F1->1A : SF Length:   03         [ 22 FD 35 ]
   1.251410 1  18DA1AF1x       Tx   d 4 03 22 FD 35  Length = 0 BitCount = 101 ID = 416946929x  // 1  OTP(19) Atom F1->1A : SF Length:   03         [ 22 FD 35 ]
   1.261434 1  18DA1AF1x       Tx   d 4 03 22 FD 35  Length = 0 BitCount = 101 ID = 416946929x  // 1  OTP(1A) Atom F1->1A : SF Length:   03         [ 22 FD 35 ]
   1.271409 1  18DA1AF1x       Tx   d 4 03 22 FD 35  Length = 0 BitCount = 101 ID = 416946929x  // 1  OTP(1B) Atom F1->1A : SF Length:   03         [ 22 FD 35 ]
