date Tue Nov 17 11:38:16.674 am 2015
base hex  timestamps absolute
internal events logged
// version 8.5.0
   3.000461 CAN 1 Status:chip status error active
   4.000408 CAN 1 Status:chip status error active
   5.000375 CAN 1 Status:chip status error active
   6.000425 CAN 1 Status:chip status error active
   7.000392 CAN 1 Status:chip status error active
   8.000397 CAN 1 Status:chip status error active
   9.000419 CAN 1 Status:chip status error active
  10.000394 CAN 1 Status:chip status error active
  11.000426 CAN 1 Status:chip status error active
  12.000414 CAN 1 Status:chip status error active
  13.000399 CAN 1 Status:chip status error active
  14.000391 CAN 1 Status:chip status error active
  15.000461 CAN 1 Status:chip status error active
  16.000418 CAN 1 Status:chip status error active
  16.436213 1  ErrorFrame	ECC: 11011001
  16.436213 CAN 1 Status:chip status error active  - TxErr: 8 RxErr: 0
  16.437117 1  ErrorFrame	ECC: 11011001
  16.437117 CAN 1 Status:chip status error active  - TxErr: 16 RxErr: 0
  16.438021 1  ErrorFrame	ECC: 11011001
  16.438021 CAN 1 Status:chip status error active  - TxErr: 24 RxErr: 0
  16.438925 1  ErrorFrame	ECC: 11011001
  16.438925 CAN 1 Status:chip status error active  - TxErr: 32 RxErr: 0
  16.439829 1  ErrorFrame	ECC: 11011001
  16.439829 CAN 1 Status:chip status error active  - TxErr: 40 RxErr: 0
  16.440733 1  ErrorFrame	ECC: 11011001
  16.440733 CAN 1 Status:chip status error active  - TxErr: 48 RxErr: 0
  16.441637 1  ErrorFrame	ECC: 11011001
  16.441637 CAN 1 Status:chip status error active  - TxErr: 56 RxErr: 0
  16.442541 1  ErrorFrame	ECC: 11011001
  16.442541 CAN 1 Status:chip status error active  - TxErr: 64 RxErr: 0
  16.443445 1  ErrorFrame	ECC: 11011001
  16.443445 CAN 1 Status:chip status error active  - TxErr: 72 RxErr: 0
  16.444349 1  ErrorFrame	ECC: 11011001
  16.444349 CAN 1 Status:chip status error active  - TxErr: 80 RxErr: 0
  16.445253 1  ErrorFrame	ECC: 11011001
  16.445253 CAN 1 Status:chip status error active  - TxErr: 88 RxErr: 0
  16.446157 1  ErrorFrame	ECC: 11011001
  16.446157 CAN 1 Status:chip status warning level - TxErr: 96 RxErr: 0
  16.446157 CAN 1 Status:chip status warning level - TxErr: 96 RxErr: 0
  16.447061 1  ErrorFrame	ECC: 11011001
  16.447061 CAN 1 Status:chip status warning level - TxErr: 104 RxErr: 0
  16.447965 1  ErrorFrame	ECC: 11011001
  16.447965 CAN 1 Status:chip status warning level - TxErr: 112 RxErr: 0
  16.448869 1  ErrorFrame	ECC: 11011001
  16.448869 CAN 1 Status:chip status warning level - TxErr: 120 RxErr: 0
  16.449773 1  ErrorFrame	ECC: 11011001
  16.449773 CAN 1 Status:chip status error passive - TxErr: 128 RxErr: 0
  16.449773 CAN 1 Status:chip status error passive - TxErr: 128 RxErr: 0
  16.450741 1  ErrorFrame	ECC: 11011001
  16.450741 CAN 1 Status:chip status error passive - TxErr: 128 RxErr: 0
  16.451709 1  ErrorFrame	ECC: 11011001
  16.451709 CAN 1 Status:chip status error passive - TxErr: 128 RxErr: 0
  16.452677 1  ErrorFrame	ECC: 11011001
  16.452677 CAN 1 Status:chip status error passive - TxErr: 128 RxErr: 0
  16.453645 1  ErrorFrame	ECC: 11011001
  16.453645 CAN 1 Status:chip status error passive - TxErr: 128 RxErr: 0
  16.454613 1  ErrorFrame	ECC: 11011001
  16.454613 CAN 1 Status:chip status error passive - TxErr: 128 RxErr: 0
  16.455581 1  ErrorFrame	ECC: 11011001
  16.455581 CAN 1 Status:chip status error passive - TxErr: 128 RxErr: 0
  16.456549 1  ErrorFrame	ECC: 11011001
  16.456549 CAN 1 Status:chip status error passive - TxErr: 128 RxErr: 0
  16.457517 1  ErrorFrame	ECC: 11011001
  16.457517 CAN 1 Status:chip status error passive - TxErr: 128 RxErr: 0
  16.458485 1  ErrorFrame	ECC: 11011001
  16.458485 CAN 1 Status:chip status error passive - TxErr: 128 RxErr: 0
  16.459453 1  ErrorFrame	ECC: 11011001
  16.459453 CAN 1 Status:chip status error passive - TxErr: 128 RxErr: 0
  16.460421 1  ErrorFrame	ECC: 11011001
  16.460421 CAN 1 Status:chip status error passive - TxErr: 128 RxErr: 0
  16.461389 1  ErrorFrame	ECC: 11011001
  16.461389 CAN 1 Status:chip status error passive - TxErr: 128 RxErr: 0
  16.462357 1  ErrorFrame	ECC: 11011001
  16.462357 CAN 1 Status:chip status error passive - TxErr: 128 RxErr: 0
  16.463325 1  ErrorFrame	ECC: 11011001
  16.463325 CAN 1 Status:chip status error passive - TxErr: 128 RxErr: 0
  16.464293 1  ErrorFrame	ECC: 11011001
  16.464293 CAN 1 Status:chip status error passive - TxErr: 128 RxErr: 0
  16.465261 1  ErrorFrame	ECC: 11011001
  16.465261 CAN 1 Status:chip status error passive - TxErr: 128 RxErr: 0
  16.466293 1  700             Tx   d 6 00 02 00 00 00 00  Length = 832000 BitCount = 107 ID = 1792
  16.466293 CAN 1 Status:chip status warning level - TxErr: 127 RxErr: 0
  16.473700 1  712             Rx   d 2 00 02  Length = 504000 BitCount = 67 ID = 1810
  16.531124 1  2A0             Tx   d 4 00 00 00 00  Length = 680000 BitCount = 88 ID = 672
  16.549163 1  3D2             Rx   d 8 00 00 00 00 00 04 00 00  Length = 952000 BitCount = 123 ID = 978
  16.614705 1  5B2             Rx   d 2 00 00  Length = 504000 BitCount = 67 ID = 1458
  16.631129 1  2A0             Tx   d 4 00 00 00 00  Length = 680000 BitCount = 88 ID = 672
  16.681448 1  380             Tx   d 8 00 00 00 00 00 00 00 00  Length = 1000000 BitCount = 128 ID = 896
  16.714703 1  5B2             Rx   d 2 00 00  Length = 504000 BitCount = 67 ID = 1458
  16.731151 1  2A0             Tx   d 4 00 00 00 00  Length = 680000 BitCount = 88 ID = 672
  16.809157 1  3D2             Rx   d 8 00 00 00 00 00 0C 00 00  Length = 952000 BitCount = 123 ID = 978
  16.814700 1  5B2             Rx   d 2 00 00  Length = 504000 BitCount = 67 ID = 1458
  16.831108 1  2A0             Tx   d 4 00 00 00 00  Length = 680000 BitCount = 88 ID = 672
  16.914698 1  5B2             Rx   d 2 00 00  Length = 504000 BitCount = 67 ID = 1458
  16.931433 1  380             Tx   d 8 00 00 00 00 00 00 00 00  Length = 1000000 BitCount = 128 ID = 896
  16.932145 1  2A0             Tx   d 4 00 00 00 00  Length = 680000 BitCount = 88 ID = 672
  17.000395 CAN 1 Status:chip status warning level - TxErr: 120 RxErr: 0
  17.009150 1  3D2             Rx   d 8 00 00 00 00 00 04 00 00  Length = 952000 BitCount = 123 ID = 978
  17.014694 1  5B2             Rx   d 2 00 00  Length = 504000 BitCount = 67 ID = 1458
  17.016150 1  3D2             Rx   d 8 00 00 00 00 00 04 00 00  Length = 952000 BitCount = 123 ID = 978
  17.031110 1  2A0             Tx   d 4 00 00 00 00  Length = 680000 BitCount = 88 ID = 672
  17.114691 1  5B2             Rx   d 2 00 00  Length = 504000 BitCount = 67 ID = 1458
  17.131107 1  2A0             Tx   d 4 00 00 00 00  Length = 680000 BitCount = 88 ID = 672
  17.181435 1  380             Tx   d 8 00 00 00 00 00 00 00 00  Length = 1000000 BitCount = 128 ID = 896
  17.209146 1  3D2             Rx   d 8 00 00 00 00 00 0C 00 00  Length = 952000 BitCount = 123 ID = 978
  17.214690 1  5B2             Rx   d 2 00 00  Length = 504000 BitCount = 67 ID = 1458
  17.231130 1  2A0             Tx   d 4 00 00 00 00  Length = 680000 BitCount = 88 ID = 672
  17.314687 1  5B2             Rx   d 2 00 00  Length = 504000 BitCount = 67 ID = 1458
  17.331110 1  2A0             Tx   d 4 00 00 00 00  Length = 680000 BitCount = 88 ID = 672
  17.414684 1  5B2             Rx   d 2 00 00  Length = 504000 BitCount = 67 ID = 1458
  17.431276 1  700             Tx   d 6 00 02 00 00 00 00  Length = 832000 BitCount = 107 ID = 1792
  17.432315 1  380             Tx   d 8 00 00 00 00 00 00 00 00  Length = 1000000 BitCount = 128 ID = 896
  17.433027 1  2A0             Tx   d 4 00 00 00 00  Length = 680000 BitCount = 88 ID = 672
  17.441675 1  712             Rx   d 2 00 32  Length = 496000 BitCount = 66 ID = 1810
  17.514680 1  5B2             Rx   d 2 00 00  Length = 504000 BitCount = 67 ID = 1458
  17.516136 1  3D2             Rx   d 8 00 00 00 00 00 0C 00 00  Length = 952000 BitCount = 123 ID = 978
  17.531112 1  2A0             Tx   d 4 00 00 00 00  Length = 680000 BitCount = 88 ID = 672
  17.609133 1  3D2             Rx   d 8 00 00 00 00 00 04 00 00  Length = 952000 BitCount = 123 ID = 978
  17.614677 1  5B2             Rx   d 2 00 00  Length = 504000 BitCount = 67 ID = 1458
  17.631117 1  2A0             Tx   d 4 00 00 00 00  Length = 680000 BitCount = 88 ID = 672
  17.681437 1  380             Tx   d 8 00 00 00 00 00 00 00 00  Length = 1000000 BitCount = 128 ID = 896
  17.714667 1  5B2             Rx   d 2 00 00  Length = 504000 BitCount = 67 ID = 1458
  17.731139 1  2A0             Tx   d 4 00 00 00 00  Length = 680000 BitCount = 88 ID = 672
  17.809121 1  3D2             Rx   d 8 00 00 00 00 00 0C 00 00  Length = 952000 BitCount = 123 ID = 978
  17.814665 1  5B2             Rx   d 2 00 00  Length = 504000 BitCount = 67 ID = 1458
  17.831120 1  2A0             Tx   d 4 00 00 00 00  Length = 680000 BitCount = 88 ID = 672
  17.914662 1  5B2             Rx   d 2 00 00  Length = 504000 BitCount = 67 ID = 1458
  17.931446 1  380             Tx   d 8 00 00 00 00 00 00 00 00  Length = 1000000 BitCount = 128 ID = 896
  17.932158 1  2A0             Tx   d 4 00 00 00 00  Length = 680000 BitCount = 88 ID = 672
  18.000402 CAN 1 Status:chip status warning level - TxErr: 105 RxErr: 0
  18.014659 1  5B2             Rx   d 2 00 00  Length = 504000 BitCount = 67 ID = 1458
  18.016115 1  3D2             Rx   d 8 00 00 00 00 00 0C 00 00  Length = 952000 BitCount = 123 ID = 978
  18.031123 1  2A0             Tx   d 4 00 00 00 00  Length = 680000 BitCount = 88 ID = 672
  18.114656 1  5B2             Rx   d 2 00 00  Length = 504000 BitCount = 67 ID = 1458
  18.131144 1  2A0             Tx   d 4 00 00 00 00  Length = 680000 BitCount = 88 ID = 672
  18.181440 1  380             Tx   d 8 00 00 00 00 00 00 00 00  Length = 1000000 BitCount = 128 ID = 896
  18.214654 1  5B2             Rx   d 2 00 00  Length = 504000 BitCount = 67 ID = 1458
  18.231166 1  2A0             Tx   d 4 00 00 00 00  Length = 680000 BitCount = 88 ID = 672
  18.301454 1  380             Tx   d 8 00 00 40 00 00 00 00 00  Length = 992000 BitCount = 127 ID = 896
  18.308653 1  5B2             Rx   d 2 E0 00  Length = 504000 BitCount = 67 ID = 1458
  18.310117 1  3D2             Rx   d 8 00 00 00 00 00 B4 00 20  Length = 960000 BitCount = 124 ID = 978
  18.315653 1  5B2             Rx   d 2 E0 00  Length = 504000 BitCount = 67 ID = 1458
  18.331141 1  2A0             Tx   d 4 00 00 00 00  Length = 680000 BitCount = 88 ID = 672
  18.416650 1  5B2             Rx   d 2 E0 00  Length = 504000 BitCount = 67 ID = 1458
  18.431266 1  700             Tx   d 6 00 02 00 00 00 00  Length = 832000 BitCount = 107 ID = 1792
  18.432298 1  380             Tx   d 8 00 00 40 00 00 00 00 00  Length = 992000 BitCount = 127 ID = 896
  18.433018 1  2A0             Tx   d 4 00 00 00 00  Length = 680000 BitCount = 88 ID = 672
  18.433642 1  712             Rx   d 2 00 32  Length = 496000 BitCount = 66 ID = 1810
  18.517647 1  5B2             Rx   d 2 E0 00  Length = 504000 BitCount = 67 ID = 1458
  18.519103 1  3D2             Rx   d 8 00 00 00 00 00 B4 00 00  Length = 952000 BitCount = 123 ID = 978
  18.531143 1  2A0             Tx   d 4 00 00 00 00  Length = 680000 BitCount = 88 ID = 672
  18.531143 CAN 1 Status:chip status error active  - TxErr: 95 RxErr: 0
  18.609085 1  3D2             Rx   d 8 00 00 00 00 00 BC 00 00  Length = 944000 BitCount = 122 ID = 978
  18.617644 1  5B2             Rx   d 2 E0 00  Length = 504000 BitCount = 67 ID = 1458
  18.631124 1  2A0             Tx   d 4 00 00 00 00  Length = 680000 BitCount = 88 ID = 672
  18.681436 1  380             Tx   d 8 00 00 40 00 00 00 00 00  Length = 992000 BitCount = 127 ID = 896
  18.717635 1  5B2             Rx   d 2 E0 00  Length = 504000 BitCount = 67 ID = 1458
  18.731210 1  2A0             Tx   d 4 00 00 00 00  Length = 680000 BitCount = 88 ID = 672
  18.809088 1  3D2             Rx   d 8 00 00 00 00 00 B4 00 00  Length = 952000 BitCount = 123 ID = 978
  18.817632 1  5B2             Rx   d 2 E0 00  Length = 504000 BitCount = 67 ID = 1458
  18.831128 1  2A0             Tx   d 4 00 00 00 00  Length = 680000 BitCount = 88 ID = 672
  18.917629 1  5B2             Rx   d 2 E0 00  Length = 504000 BitCount = 67 ID = 1458
  18.931461 1  380             Tx   d 8 00 00 40 00 00 00 00 00  Length = 992000 BitCount = 127 ID = 896
  18.932173 1  2A0             Tx   d 4 00 00 00 00  Length = 680000 BitCount = 88 ID = 672
  19.000415 CAN 1 Status:chip status error active  - TxErr: 89 RxErr: 0
  19.009074 1  3D2             Rx   d 8 00 00 00 00 00 BC 00 00  Length = 944000 BitCount = 122 ID = 978
  19.017626 1  5B2             Rx   d 2 E0 00  Length = 504000 BitCount = 67 ID = 1458
  19.019074 1  3D2             Rx   d 8 00 00 00 00 00 BC 00 00  Length = 944000 BitCount = 122 ID = 978
  19.031130 1  2A0             Tx   d 4 00 00 00 00  Length = 680000 BitCount = 88 ID = 672
  19.117623 1  5B2             Rx   d 2 E0 00  Length = 504000 BitCount = 67 ID = 1458
  19.131126 1  2A0             Tx   d 4 00 00 00 00  Length = 680000 BitCount = 88 ID = 672
  19.181438 1  380             Tx   d 8 00 00 40 00 00 00 00 00  Length = 992000 BitCount = 127 ID = 896
  19.217621 1  5B2             Rx   d 2 E0 00  Length = 504000 BitCount = 67 ID = 1458
  19.231149 1  2A0             Tx   d 4 00 00 00 00  Length = 680000 BitCount = 88 ID = 672
  19.309074 1  3D2             Rx   d 8 00 00 00 00 00 B4 00 00  Length = 952000 BitCount = 123 ID = 978
  19.317618 1  5B2             Rx   d 2 E0 00  Length = 504000 BitCount = 67 ID = 1458
  19.331098 1  2A0             Tx   d 4 00 00 00 00  Length = 680000 BitCount = 88 ID = 672
  19.417615 1  5B2             Rx   d 2 E0 00  Length = 504000 BitCount = 67 ID = 1458
  19.431247 1  700             Tx   d 6 00 02 00 00 00 00  Length = 832000 BitCount = 107 ID = 1792
  19.432271 1  380             Tx   d 8 00 00 40 00 00 00 00 00  Length = 992000 BitCount = 127 ID = 896
  19.432991 1  2A0             Tx   d 4 00 00 00 00  Length = 680000 BitCount = 88 ID = 672
  19.434607 1  712             Rx   d 2 00 32  Length = 496000 BitCount = 66 ID = 1810
  19.509060 1  3D2             Rx   d 8 00 00 00 00 00 BC 00 00  Length = 944000 BitCount = 122 ID = 978
  19.517612 1  5B2             Rx   d 2 E0 00  Length = 504000 BitCount = 67 ID = 1458
  19.519060 1  3D2             Rx   d 8 00 00 00 00 00 BC 00 00  Length = 944000 BitCount = 122 ID = 978
  19.531092 1  2A0             Tx   d 4 00 00 00 00  Length = 680000 BitCount = 88 ID = 672
  19.617609 1  5B2             Rx   d 2 E0 00  Length = 504000 BitCount = 67 ID = 1458
  19.631096 1  2A0             Tx   d 4 00 00 00 00  Length = 680000 BitCount = 88 ID = 672
  19.681408 1  380             Tx   d 8 00 00 40 00 00 00 00 00  Length = 992000 BitCount = 127 ID = 896
  19.717607 1  5B2             Rx   d 2 E0 00  Length = 504000 BitCount = 67 ID = 1458
  19.731135 1  2A0             Tx   d 4 00 00 00 00  Length = 680000 BitCount = 88 ID = 672
  19.817604 1  5B2             Rx   d 2 E0 00  Length = 504000 BitCount = 67 ID = 1458
  19.831100 1  2A0             Tx   d 4 00 00 00 00  Length = 680000 BitCount = 88 ID = 672
  19.917593 1  5B2             Rx   d 2 E0 00  Length = 504000 BitCount = 67 ID = 1458
  19.931409 1  380             Tx   d 8 00 00 40 00 00 00 00 00  Length = 992000 BitCount = 127 ID = 896
  19.932121 1  2A0             Tx   d 4 00 00 00 00  Length = 680000 BitCount = 88 ID = 672
  20.000397 CAN 1 Status:chip status error active  - TxErr: 74 RxErr: 0
  20.017590 1  5B2             Rx   d 2 E0 00  Length = 504000 BitCount = 67 ID = 1458
  20.019038 1  3D2             Rx   d 8 00 00 00 00 00 BC 00 00  Length = 944000 BitCount = 122 ID = 978
  20.031102 1  2A0             Tx   d 4 00 00 00 00  Length = 680000 BitCount = 88 ID = 672
  20.117587 1  5B2             Rx   d 2 E0 00  Length = 504000 BitCount = 67 ID = 1458
  20.131099 1  2A0             Tx   d 4 00 00 00 00  Length = 680000 BitCount = 88 ID = 672
  20.181411 1  380             Tx   d 8 00 00 40 00 00 00 00 00  Length = 992000 BitCount = 127 ID = 896
  20.217586 1  5B2             Rx   d 2 E0 00  Length = 504000 BitCount = 67 ID = 1458
  20.231138 1  2A0             Tx   d 4 00 00 00 00  Length = 680000 BitCount = 88 ID = 672
  20.317583 1  5B2             Rx   d 2 E0 00  Length = 504000 BitCount = 67 ID = 1458
  20.331103 1  2A0             Tx   d 4 00 00 00 00  Length = 680000 BitCount = 88 ID = 672
  20.366447 1  380             Tx   d 8 00 00 10 00 00 00 00 00  Length = 984000 BitCount = 126 ID = 896
  20.417581 1  5B2             Rx   d 2 E0 00  Length = 504000 BitCount = 67 ID = 1458
  20.431253 1  700             Tx   d 6 00 02 00 00 00 00  Length = 832000 BitCount = 107 ID = 1792
  20.432269 1  380             Tx   d 8 00 00 10 00 00 00 00 00  Length = 984000 BitCount = 126 ID = 896
  20.432989 1  2A0             Tx   d 4 00 00 00 00  Length = 680000 BitCount = 88 ID = 672
  20.434573 1  712             Rx   d 2 00 32  Length = 496000 BitCount = 66 ID = 1810
  20.517578 1  5B2             Rx   d 2 E0 00  Length = 504000 BitCount = 67 ID = 1458
  20.519025 1  3D2             Rx   d 8 00 00 00 00 00 BC 00 00  Length = 944000 BitCount = 122 ID = 978
  20.531105 1  2A0             Tx   d 4 00 00 00 00  Length = 680000 BitCount = 88 ID = 672
  20.617574 1  5B2             Rx   d 2 E0 00  Length = 504000 BitCount = 67 ID = 1458
  20.631102 1  2A0             Tx   d 4 00 00 00 00  Length = 680000 BitCount = 88 ID = 672
  20.681470 1  380             Tx   d 8 00 00 10 00 00 00 00 00  Length = 984000 BitCount = 126 ID = 896
  20.717573 1  5B2             Rx   d 2 E0 00  Length = 504000 BitCount = 67 ID = 1458
  20.731165 1  2A0             Tx   d 4 00 00 00 00  Length = 680000 BitCount = 88 ID = 672
  20.817562 1  5B2             Rx   d 2 E0 00  Length = 504000 BitCount = 67 ID = 1458
  20.831106 1  2A0             Tx   d 4 00 00 00 00  Length = 680000 BitCount = 88 ID = 672
  20.917559 1  5B2             Rx   d 2 E0 00  Length = 504000 BitCount = 67 ID = 1458
  20.931415 1  380             Tx   d 8 00 00 10 00 00 00 00 00  Length = 984000 BitCount = 126 ID = 896
  20.932127 1  2A0             Tx   d 4 00 00 00 00  Length = 680000 BitCount = 88 ID = 672
  21.000389 CAN 1 Status:chip status error active  - TxErr: 58 RxErr: 0
  21.017556 1  5B2             Rx   d 2 E0 00  Length = 504000 BitCount = 67 ID = 1458
  21.019003 1  3D2             Rx   d 8 00 00 00 00 00 BC 00 00  Length = 944000 BitCount = 122 ID = 978
  21.031107 1  2A0             Tx   d 4 00 00 00 00  Length = 680000 BitCount = 88 ID = 672
  21.117552 1  5B2             Rx   d 2 E0 00  Length = 504000 BitCount = 67 ID = 1458
  21.131112 1  2A0             Tx   d 4 00 00 00 00  Length = 680000 BitCount = 88 ID = 672
  21.181416 1  380             Tx   d 8 00 00 10 00 00 00 00 00  Length = 984000 BitCount = 126 ID = 896
  21.217551 1  5B2             Rx   d 2 E0 00  Length = 504000 BitCount = 67 ID = 1458
  21.231167 1  2A0             Tx   d 4 00 00 00 00  Length = 680000 BitCount = 88 ID = 672
  21.317548 1  5B2             Rx   d 2 E0 00  Length = 504000 BitCount = 67 ID = 1458
  21.331108 1  2A0             Tx   d 4 00 00 00 00  Length = 680000 BitCount = 88 ID = 672
  21.417545 1  5B2             Rx   d 2 E0 00  Length = 504000 BitCount = 67 ID = 1458
  21.431264 1  700             Tx   d 6 00 02 00 00 00 00  Length = 832000 BitCount = 107 ID = 1792
  21.432288 1  380             Tx   d 8 00 00 10 00 00 00 00 00  Length = 984000 BitCount = 126 ID = 896
  21.432999 1  2A0             Tx   d 4 00 00 00 00  Length = 680000 BitCount = 88 ID = 672
  21.434535 1  712             Rx   d 2 00 32  Length = 496000 BitCount = 66 ID = 1810
  21.517541 1  5B2             Rx   d 2 E0 00  Length = 504000 BitCount = 67 ID = 1458
  21.518988 1  3D2             Rx   d 8 00 00 00 00 00 BC 00 00  Length = 944000 BitCount = 122 ID = 978
  21.531116 1  2A0             Tx   d 4 00 00 00 00  Length = 680000 BitCount = 88 ID = 672
  21.617537 1  5B2             Rx   d 2 E0 00  Length = 504000 BitCount = 67 ID = 1458
  21.631089 1  2A0             Tx   d 4 00 00 00 00  Length = 680000 BitCount = 88 ID = 672
  21.681401 1  380             Tx   d 8 00 00 10 00 00 00 00 00  Length = 984000 BitCount = 126 ID = 896
  21.717536 1  5B2             Rx   d 2 E0 00  Length = 504000 BitCount = 67 ID = 1458
  21.731152 1  2A0             Tx   d 4 00 00 00 00  Length = 680000 BitCount = 88 ID = 672
  21.817533 1  5B2             Rx   d 2 E0 00  Length = 504000 BitCount = 67 ID = 1458
  21.831092 1  2A0             Tx   d 4 00 00 00 00  Length = 680000 BitCount = 88 ID = 672
  21.917529 1  5B2             Rx   d 2 E0 00  Length = 504000 BitCount = 67 ID = 1458
  21.931401 1  380             Tx   d 8 00 00 10 00 00 00 00 00  Length = 984000 BitCount = 126 ID = 896
  21.932113 1  2A0             Tx   d 4 00 00 00 00  Length = 680000 BitCount = 88 ID = 672
  22.000395 CAN 1 Status:chip status error active  - TxErr: 43 RxErr: 0
  22.008974 1  3D2             Rx   d 8 40 00 00 00 00 BC 00 00  Length = 936000 BitCount = 121 ID = 978
  22.017534 1  5B2             Rx   d 2 E0 00  Length = 504000 BitCount = 67 ID = 1458
  22.018974 1  3D2             Rx   d 8 40 00 00 00 00 BC 00 00  Length = 936000 BitCount = 121 ID = 978
  22.031094 1  2A0             Tx   d 4 00 00 00 00  Length = 680000 BitCount = 88 ID = 672
  22.117531 1  5B2             Rx   d 2 E0 00  Length = 504000 BitCount = 67 ID = 1458
  22.131099 1  2A0             Tx   d 4 00 00 00 00  Length = 680000 BitCount = 88 ID = 672
  22.181403 1  380             Tx   d 8 00 00 10 00 00 00 00 00  Length = 984000 BitCount = 126 ID = 896
  22.208970 1  3D2             Rx   d 8 00 00 00 00 00 BC 00 00  Length = 944000 BitCount = 122 ID = 978
  22.217522 1  5B2             Rx   d 2 E0 00  Length = 504000 BitCount = 67 ID = 1458
  22.231114 1  2A0             Tx   d 4 00 00 00 00  Length = 680000 BitCount = 88 ID = 672
  22.317519 1  5B2             Rx   d 2 E0 00  Length = 504000 BitCount = 67 ID = 1458
  22.331126 1  2A0             Tx   d 4 00 00 00 00  Length = 680000 BitCount = 88 ID = 672
  22.408956 1  3D2             Rx   d 8 40 00 00 00 00 BC 00 00  Length = 936000 BitCount = 121 ID = 978
  22.417516 1  5B2             Rx   d 2 E0 00  Length = 504000 BitCount = 67 ID = 1458
  22.431252 1  700             Tx   d 6 00 02 00 00 00 00  Length = 832000 BitCount = 107 ID = 1792
  22.432268 1  380             Tx   d 8 00 00 10 00 00 00 00 00  Length = 984000 BitCount = 126 ID = 896
  22.432988 1  2A0             Tx   d 4 00 00 00 00  Length = 680000 BitCount = 88 ID = 672
  22.434507 1  712             Rx   d 2 00 36  Length = 496000 BitCount = 66 ID = 1810
  22.517512 1  5B2             Rx   d 2 E0 00  Length = 504000 BitCount = 67 ID = 1458
  22.518952 1  3D2             Rx   d 8 40 00 00 00 00 BC 00 00  Length = 936000 BitCount = 121 ID = 978
  22.531120 1  2A0             Tx   d 4 00 00 00 00  Length = 680000 BitCount = 88 ID = 672
  22.617517 1  5B2             Rx   d 2 E0 00  Length = 504000 BitCount = 67 ID = 1458
  22.631101 1  2A0             Tx   d 4 00 00 00 00  Length = 680000 BitCount = 88 ID = 672
  22.681405 1  380             Tx   d 8 00 00 10 00 00 00 00 00  Length = 984000 BitCount = 126 ID = 896
  22.717508 1  5B2             Rx   d 2 E0 00  Length = 504000 BitCount = 67 ID = 1458
  22.731163 1  2A0             Tx   d 4 00 00 00 00  Length = 680000 BitCount = 88 ID = 672
  22.808961 1  3D2             Rx   d 8 00 00 00 00 00 BC 00 00  Length = 944000 BitCount = 122 ID = 978
  22.817504 1  5B2             Rx   d 2 E0 00  Length = 504000 BitCount = 67 ID = 1458
  22.831104 1  2A0             Tx   d 4 00 00 00 00  Length = 680000 BitCount = 88 ID = 672
  22.917493 1  5B2             Rx   d 2 E0 00  Length = 504000 BitCount = 67 ID = 1458
  22.931429 1  380             Tx   d 8 00 00 10 00 00 00 00 00  Length = 984000 BitCount = 126 ID = 896
  22.932141 1  2A0             Tx   d 4 00 00 00 00  Length = 680000 BitCount = 88 ID = 672
  23.000428 CAN 1 Status:chip status error active  - TxErr: 28 RxErr: 0
  23.017490 1  5B2             Rx   d 2 E0 00  Length = 504000 BitCount = 67 ID = 1458
  23.018938 1  3D2             Rx   d 8 00 00 00 00 00 BC 00 00  Length = 944000 BitCount = 122 ID = 978
  23.031106 1  2A0             Tx   d 4 00 00 00 00  Length = 680000 BitCount = 88 ID = 672
  23.117487 1  5B2             Rx   d 2 E0 00  Length = 504000 BitCount = 67 ID = 1458
  23.131103 1  2A0             Tx   d 4 00 00 00 00  Length = 680000 BitCount = 88 ID = 672
  23.181415 1  380             Tx   d 8 00 00 10 00 00 00 00 00  Length = 984000 BitCount = 126 ID = 896
