date Wed Nov 25 02:36:10.253 pm 2015
base hex  timestamps absolute
internal events logged
// version 8.5.0
   0.001854 CAN 1 Status:chip status error active
   0.001973 CAN 2 Status:chip status error active
   0.002780 2  5B2             Rx   d 2 00 00  Length = 504000 BitCount = 67 ID = 1458
   0.003956 2  712             Rx   d 2 00 76  Length = 496000 BitCount = 66 ID = 1810
   0.005419 2  3D2             Rx   d 8 00 00 00 00 00 0C 00 00  Length = 952000 BitCount = 123 ID = 978
   0.065961 2  5B2             Rx   d 2 00 00  Length = 504000 BitCount = 67 ID = 1458
   0.165958 2  5B2             Rx   d 2 00 00  Length = 504000 BitCount = 67 ID = 1458
   0.265955 2  5B2             Rx   d 2 00 00  Length = 504000 BitCount = 67 ID = 1458
   0.267411 2  3D2             Rx   d 8 00 00 00 00 00 0C 00 00  Length = 952000 BitCount = 123 ID = 978
   0.365952 2  5B2             Rx   d 2 00 00  Length = 504000 BitCount = 67 ID = 1458
   0.465948 2  5B2             Rx   d 2 00 00  Length = 504000 BitCount = 67 ID = 1458
   0.565944 2  5B2             Rx   d 2 00 00  Length = 504000 BitCount = 67 ID = 1458
   0.665940 2  5B2             Rx   d 2 00 00  Length = 504000 BitCount = 67 ID = 1458
   0.765936 2  5B2             Rx   d 2 00 00  Length = 504000 BitCount = 67 ID = 1458
   0.767392 2  3D2             Rx   d 8 00 00 00 00 00 0C 00 00  Length = 952000 BitCount = 123 ID = 978
   0.865933 2  5B2             Rx   d 2 00 00  Length = 504000 BitCount = 67 ID = 1458
   0.965930 2  5B2             Rx   d 2 00 00  Length = 504000 BitCount = 67 ID = 1458
   1.001051 CAN 1 Status:chip status error active
   1.001279 CAN 2 Status:chip status error active
   1.065927 2  5B2             Rx   d 2 00 00  Length = 504000 BitCount = 67 ID = 1458
   1.165924 2  5B2             Rx   d 2 00 00  Length = 504000 BitCount = 67 ID = 1458
   1.262913 2  712             Rx   d 2 00 76  Length = 496000 BitCount = 66 ID = 1810
   1.265921 2  5B2             Rx   d 2 00 00  Length = 504000 BitCount = 67 ID = 1458
   1.267377 2  3D2             Rx   d 8 00 00 00 00 00 0C 00 00  Length = 952000 BitCount = 123 ID = 978
   1.365918 2  5B2             Rx   d 2 00 00  Length = 504000 BitCount = 67 ID = 1458
   1.465915 2  5B2             Rx   d 2 00 00  Length = 504000 BitCount = 67 ID = 1458
   1.565911 2  5B2             Rx   d 2 00 00  Length = 504000 BitCount = 67 ID = 1458
   1.665907 2  5B2             Rx   d 2 00 00  Length = 504000 BitCount = 67 ID = 1458
   1.765911 2  5B2             Rx   d 2 00 00  Length = 504000 BitCount = 67 ID = 1458
   1.767366 2  3D2             Rx   d 8 00 00 00 00 00 0C 00 00  Length = 952000 BitCount = 123 ID = 978
   1.865907 2  5B2             Rx   d 2 00 00  Length = 504000 BitCount = 67 ID = 1458
   1.965904 2  5B2             Rx   d 2 00 00  Length = 504000 BitCount = 67 ID = 1458
   2.000977 CAN 1 Status:chip status error active
   2.001142 CAN 2 Status:chip status error active
   2.065901 2  5B2             Rx   d 2 00 00  Length = 504000 BitCount = 67 ID = 1458
   2.165898 2  5B2             Rx   d 2 00 00  Length = 504000 BitCount = 67 ID = 1458
   2.265895 2  5B2             Rx   d 2 00 00  Length = 504000 BitCount = 67 ID = 1458
   2.267351 2  3D2             Rx   d 8 00 00 00 00 00 0C 00 00  Length = 952000 BitCount = 123 ID = 978
   2.365892 2  5B2             Rx   d 2 00 00  Length = 504000 BitCount = 67 ID = 1458
   2.465889 2  5B2             Rx   d 2 00 00  Length = 504000 BitCount = 67 ID = 1458
   2.565886 2  5B2             Rx   d 2 00 00  Length = 504000 BitCount = 67 ID = 1458
   2.665882 2  5B2             Rx   d 2 00 00  Length = 504000 BitCount = 67 ID = 1458
   2.727714 2  700             Tx   d 6 00 02 00 00 00 00  Length = 832000 BitCount = 107 ID = 1792
   2.732873 2  712             Rx   d 2 00 76  Length = 496000 BitCount = 66 ID = 1810
   2.765879 2  5B2             Rx   d 2 00 00  Length = 504000 BitCount = 67 ID = 1458
   2.767334 2  3D2             Rx   d 8 00 00 00 00 00 0C 00 00  Length = 952000 BitCount = 123 ID = 978
   2.821726 2  2A0             Tx   d 4 00 00 00 00  Length = 680000 BitCount = 88 ID = 672
   2.865876 2  5B2             Rx   d 2 00 00  Length = 504000 BitCount = 67 ID = 1458
   2.921708 2  2A0             Tx   d 4 00 00 00 00  Length = 680000 BitCount = 88 ID = 672
   2.965874 2  5B2             Rx   d 2 00 00  Length = 504000 BitCount = 67 ID = 1458
   2.971962 2  380             Tx   d 8 00 00 00 00 00 00 00 00  Length = 1000000 BitCount = 128 ID = 896
   3.000945 CAN 1 Status:chip status error active
   3.001071 CAN 2 Status:chip status error active
   3.021554 2  2A0             Tx   d 4 00 00 00 00  Length = 680000 BitCount = 88 ID = 672
   3.065872 2  5B2             Rx   d 2 00 00  Length = 504000 BitCount = 67 ID = 1458
   3.121576 2  2A0             Tx   d 4 00 00 00 00  Length = 680000 BitCount = 88 ID = 672
   3.165862 2  5B2             Rx   d 2 00 00  Length = 504000 BitCount = 67 ID = 1458
   3.221902 2  380             Tx   d 8 00 00 00 00 00 00 00 00  Length = 1000000 BitCount = 128 ID = 896
   3.222614 2  2A0             Tx   d 4 00 00 00 00  Length = 680000 BitCount = 88 ID = 672
   3.265860 2  5B2             Rx   d 2 00 00  Length = 504000 BitCount = 67 ID = 1458
   3.267316 2  3D2             Rx   d 8 00 00 00 00 00 0C 00 00  Length = 952000 BitCount = 123 ID = 978
   3.321556 2  2A0             Tx   d 4 00 00 00 00  Length = 680000 BitCount = 88 ID = 672
   3.365858 2  5B2             Rx   d 2 00 00  Length = 504000 BitCount = 67 ID = 1458
   3.421657 2  2A0             Tx   d 4 00 00 00 00  Length = 680000 BitCount = 88 ID = 672
   3.465856 2  5B2             Rx   d 2 00 00  Length = 504000 BitCount = 67 ID = 1458
   3.471999 2  380             Tx   d 8 00 00 00 00 00 00 00 00  Length = 1000000 BitCount = 128 ID = 896
   3.521622 2  2A0             Tx   d 4 00 00 00 00  Length = 680000 BitCount = 88 ID = 672
   3.565853 2  5B2             Rx   d 2 00 00  Length = 504000 BitCount = 67 ID = 1458
   3.621653 2  2A0             Tx   d 4 00 00 00 00  Length = 680000 BitCount = 88 ID = 672
   3.665852 2  5B2             Rx   d 2 00 00  Length = 504000 BitCount = 67 ID = 1458
   3.721852 2  700             Tx   d 6 00 02 00 00 00 00  Length = 832000 BitCount = 107 ID = 1792
   3.722884 2  380             Tx   d 8 00 00 00 00 00 00 00 00  Length = 1000000 BitCount = 128 ID = 896
   3.723604 2  2A0             Tx   d 4 00 00 00 00  Length = 680000 BitCount = 88 ID = 672
   3.732843 2  712             Rx   d 2 00 36  Length = 496000 BitCount = 66 ID = 1810
   3.765849 2  5B2             Rx   d 2 00 00  Length = 504000 BitCount = 67 ID = 1458
   3.767304 2  3D2             Rx   d 8 00 00 00 00 00 0C 00 00  Length = 952000 BitCount = 123 ID = 978
   3.821696 2  2A0             Tx   d 4 00 00 00 00  Length = 680000 BitCount = 88 ID = 672
   3.865846 2  5B2             Rx   d 2 00 00  Length = 504000 BitCount = 67 ID = 1458
   3.921694 2  2A0             Tx   d 4 00 00 00 00  Length = 680000 BitCount = 88 ID = 672
   3.965844 2  5B2             Rx   d 2 00 00  Length = 504000 BitCount = 67 ID = 1458
   3.971956 2  380             Tx   d 8 00 00 00 00 00 00 00 00  Length = 1000000 BitCount = 128 ID = 896
   4.000956 CAN 1 Status:chip status error active
   4.001121 CAN 2 Status:chip status error active
   4.021652 2  2A0             Tx   d 4 00 00 00 00  Length = 680000 BitCount = 88 ID = 672
   4.065834 2  5B2             Rx   d 2 00 00  Length = 504000 BitCount = 67 ID = 1458
   4.121714 2  2A0             Tx   d 4 00 00 00 00  Length = 680000 BitCount = 88 ID = 672
   4.165832 2  5B2             Rx   d 2 00 00  Length = 504000 BitCount = 67 ID = 1458
   4.222008 2  380             Tx   d 8 00 00 00 00 00 00 00 00  Length = 1000000 BitCount = 128 ID = 896
   4.222720 2  2A0             Tx   d 4 00 00 00 00  Length = 680000 BitCount = 88 ID = 672
   4.265830 2  5B2             Rx   d 2 00 00  Length = 504000 BitCount = 67 ID = 1458
   4.267286 2  3D2             Rx   d 8 00 00 00 00 00 0C 00 00  Length = 952000 BitCount = 123 ID = 978
   4.321814 2  2A0             Tx   d 4 00 00 00 00  Length = 680000 BitCount = 88 ID = 672
   4.365828 2  5B2             Rx   d 2 00 00  Length = 504000 BitCount = 67 ID = 1458
   4.421668 2  2A0             Tx   d 4 00 00 00 00  Length = 680000 BitCount = 88 ID = 672
   4.465826 2  5B2             Rx   d 2 00 00  Length = 504000 BitCount = 67 ID = 1458
   4.472113 2  380             Tx   d 8 00 00 00 00 00 00 00 00  Length = 1000000 BitCount = 128 ID = 896
   4.521688 2  2A0             Tx   d 4 00 00 00 00  Length = 680000 BitCount = 88 ID = 672
   4.565823 2  5B2             Rx   d 2 00 00  Length = 504000 BitCount = 67 ID = 1458
   4.621630 2  2A0             Tx   d 4 00 00 00 00  Length = 680000 BitCount = 88 ID = 672
   4.665821 2  5B2             Rx   d 2 00 00  Length = 504000 BitCount = 67 ID = 1458
   4.721781 2  700             Tx   d 6 00 02 00 00 00 00  Length = 832000 BitCount = 107 ID = 1792
   4.722813 2  380             Tx   d 8 00 00 00 00 00 00 00 00  Length = 1000000 BitCount = 128 ID = 896
   4.723525 2  2A0             Tx   d 4 00 00 00 00  Length = 680000 BitCount = 88 ID = 672
   4.732813 2  712             Rx   d 2 00 36  Length = 496000 BitCount = 66 ID = 1810
   4.765820 2  5B2             Rx   d 2 00 00  Length = 504000 BitCount = 67 ID = 1458
   4.767275 2  3D2             Rx   d 8 00 00 00 00 00 0C 00 00  Length = 952000 BitCount = 123 ID = 978
   4.821579 2  2A0             Tx   d 4 00 00 00 00  Length = 680000 BitCount = 88 ID = 672
   4.865817 2  5B2             Rx   d 2 00 00  Length = 504000 BitCount = 67 ID = 1458
   4.921665 2  2A0             Tx   d 4 00 00 00 00  Length = 680000 BitCount = 88 ID = 672
   4.965807 2  5B2             Rx   d 2 00 00  Length = 504000 BitCount = 67 ID = 1458
   4.972087 2  380             Tx   d 8 00 00 00 00 00 00 00 00  Length = 1000000 BitCount = 128 ID = 896
   5.001071 CAN 1 Status:chip status error active
   5.001256 CAN 2 Status:chip status error active
   5.021727 2  2A0             Tx   d 4 00 00 00 00  Length = 680000 BitCount = 88 ID = 672
   5.065805 2  5B2             Rx   d 2 00 00  Length = 504000 BitCount = 67 ID = 1458
   5.121741 2  2A0             Tx   d 4 00 00 00 00  Length = 680000 BitCount = 88 ID = 672
   5.165803 2  5B2             Rx   d 2 00 00  Length = 504000 BitCount = 67 ID = 1458
   5.222019 2  380             Tx   d 8 00 00 00 00 00 00 00 00  Length = 1000000 BitCount = 128 ID = 896
   5.222731 2  2A0             Tx   d 4 00 00 00 00  Length = 680000 BitCount = 88 ID = 672
   5.265801 2  5B2             Rx   d 2 00 00  Length = 504000 BitCount = 67 ID = 1458
   5.267257 2  3D2             Rx   d 8 00 00 00 00 00 0C 00 00  Length = 952000 BitCount = 123 ID = 978
   5.321745 2  2A0             Tx   d 4 00 00 00 00  Length = 680000 BitCount = 88 ID = 672
   5.365799 2  5B2             Rx   d 2 00 00  Length = 504000 BitCount = 67 ID = 1458
   5.421655 2  2A0             Tx   d 4 00 00 00 00  Length = 680000 BitCount = 88 ID = 672
   5.465797 2  5B2             Rx   d 2 00 00  Length = 504000 BitCount = 67 ID = 1458
   5.471997 2  380             Tx   d 8 00 00 00 00 00 00 00 00  Length = 1000000 BitCount = 128 ID = 896
   5.521645 2  2A0             Tx   d 4 00 00 00 00  Length = 680000 BitCount = 88 ID = 672
   5.565795 2  5B2             Rx   d 2 00 00  Length = 504000 BitCount = 67 ID = 1458
   5.621658 2  2A0             Tx   d 4 00 00 00 00  Length = 680000 BitCount = 88 ID = 672
   5.665793 2  5B2             Rx   d 2 00 00  Length = 504000 BitCount = 67 ID = 1458
   5.667913 2  380             Tx   d 8 00 00 40 00 00 00 00 00  Length = 992000 BitCount = 127 ID = 896
   5.721808 2  700             Tx   d 6 00 02 00 00 00 00  Length = 832000 BitCount = 107 ID = 1792
   5.722831 2  380             Tx   d 8 00 00 40 00 00 00 00 00  Length = 992000 BitCount = 127 ID = 896
   5.723543 2  2A0             Tx   d 4 00 00 00 00  Length = 680000 BitCount = 88 ID = 672
   5.724063 2  712             Rx   d 2 00 36  Length = 496000 BitCount = 66 ID = 1810
   5.755254 2  3D2             Rx   d 8 00 00 00 00 00 04 00 20  Length = 960000 BitCount = 124 ID = 978
   5.766789 2  5B2             Rx   d 2 00 00  Length = 504000 BitCount = 67 ID = 1458
   5.768244 2  3D2             Rx   d 8 00 00 00 00 00 04 00 00  Length = 952000 BitCount = 123 ID = 978
   5.821692 2  2A0             Tx   d 4 00 00 00 00  Length = 680000 BitCount = 88 ID = 672
   5.867786 2  5B2             Rx   d 2 00 00  Length = 504000 BitCount = 67 ID = 1458
   5.921714 2  2A0             Tx   d 4 00 00 00 00  Length = 680000 BitCount = 88 ID = 672
   5.967776 2  5B2             Rx   d 2 00 00  Length = 504000 BitCount = 67 ID = 1458
   5.971952 2  380             Tx   d 8 00 00 40 00 00 00 00 00  Length = 992000 BitCount = 127 ID = 896
   6.000870 CAN 1 Status:chip status error active
   6.001000 CAN 2 Status:chip status error active
   6.021592 2  2A0             Tx   d 4 00 00 00 00  Length = 680000 BitCount = 88 ID = 672
   6.067774 2  5B2             Rx   d 2 00 00  Length = 504000 BitCount = 67 ID = 1458
   6.121694 2  2A0             Tx   d 4 00 00 00 00  Length = 680000 BitCount = 88 ID = 672
   6.167772 2  5B2             Rx   d 2 00 00  Length = 504000 BitCount = 67 ID = 1458
   6.222196 2  380             Tx   d 8 00 00 40 00 00 00 00 00  Length = 992000 BitCount = 127 ID = 896
   6.222908 2  2A0             Tx   d 4 00 00 00 00  Length = 680000 BitCount = 88 ID = 672
   6.267770 2  5B2             Rx   d 2 00 00  Length = 504000 BitCount = 67 ID = 1458
   6.269226 2  3D2             Rx   d 8 00 00 00 00 00 04 00 00  Length = 952000 BitCount = 123 ID = 978
   6.321690 2  2A0             Tx   d 4 00 00 00 00  Length = 680000 BitCount = 88 ID = 672
   6.367768 2  5B2             Rx   d 2 00 00  Length = 504000 BitCount = 67 ID = 1458
   6.421664 2  2A0             Tx   d 4 00 00 00 00  Length = 680000 BitCount = 88 ID = 672
   6.467766 2  5B2             Rx   d 2 00 00  Length = 504000 BitCount = 67 ID = 1458
   6.472022 2  380             Tx   d 8 00 00 40 00 00 00 00 00  Length = 992000 BitCount = 127 ID = 896
   6.521630 2  2A0             Tx   d 4 00 00 00 00  Length = 680000 BitCount = 88 ID = 672
   6.567764 2  5B2             Rx   d 2 00 00  Length = 504000 BitCount = 67 ID = 1458
   6.621748 2  2A0             Tx   d 4 00 00 00 00  Length = 680000 BitCount = 88 ID = 672
   6.667762 2  5B2             Rx   d 2 00 00  Length = 504000 BitCount = 67 ID = 1458
   6.721833 2  700             Tx   d 6 00 02 00 00 00 00  Length = 832000 BitCount = 107 ID = 1792
   6.722856 2  380             Tx   d 8 00 00 40 00 00 00 00 00  Length = 992000 BitCount = 127 ID = 896
   6.723567 2  2A0             Tx   d 4 00 00 00 00  Length = 680000 BitCount = 88 ID = 672
   6.724767 2  712             Rx   d 2 00 36  Length = 496000 BitCount = 66 ID = 1810
   6.767758 2  5B2             Rx   d 2 00 00  Length = 504000 BitCount = 67 ID = 1458
   6.769214 2  3D2             Rx   d 8 00 00 00 00 00 04 00 00  Length = 952000 BitCount = 123 ID = 978
   6.821685 2  2A0             Tx   d 4 00 00 00 00  Length = 680000 BitCount = 88 ID = 672
   6.867756 2  5B2             Rx   d 2 00 00  Length = 504000 BitCount = 67 ID = 1458
   6.921724 2  2A0             Tx   d 4 00 00 00 00  Length = 680000 BitCount = 88 ID = 672
   6.967746 2  5B2             Rx   d 2 00 00  Length = 504000 BitCount = 67 ID = 1458
   6.972034 2  380             Tx   d 8 00 00 40 00 00 00 00 00  Length = 992000 BitCount = 127 ID = 896
   7.000985 CAN 1 Status:chip status error active
   7.001110 CAN 2 Status:chip status error active
   7.021722 2  2A0             Tx   d 4 00 00 00 00  Length = 680000 BitCount = 88 ID = 672
   7.067744 2  5B2             Rx   d 2 00 00  Length = 504000 BitCount = 67 ID = 1458
   7.121744 2  2A0             Tx   d 4 00 00 00 00  Length = 680000 BitCount = 88 ID = 672
   7.167742 2  5B2             Rx   d 2 00 00  Length = 504000 BitCount = 67 ID = 1458
   7.222054 2  380             Tx   d 8 00 00 40 00 00 00 00 00  Length = 992000 BitCount = 127 ID = 896
   7.222766 2  2A0             Tx   d 4 00 00 00 00  Length = 680000 BitCount = 88 ID = 672
   7.267740 2  5B2             Rx   d 2 00 00  Length = 504000 BitCount = 67 ID = 1458
   7.269196 2  3D2             Rx   d 8 00 00 00 00 00 04 00 00  Length = 952000 BitCount = 123 ID = 978
   7.321700 2  2A0             Tx   d 4 00 00 00 00  Length = 680000 BitCount = 88 ID = 672
   7.367738 2  5B2             Rx   d 2 00 00  Length = 504000 BitCount = 67 ID = 1458
   7.421658 2  2A0             Tx   d 4 00 00 00 00  Length = 680000 BitCount = 88 ID = 672
   7.467736 2  5B2             Rx   d 2 00 00  Length = 504000 BitCount = 67 ID = 1458
   7.472056 2  380             Tx   d 8 00 00 40 00 00 00 00 00  Length = 992000 BitCount = 127 ID = 896
   7.521640 2  2A0             Tx   d 4 00 00 00 00  Length = 680000 BitCount = 88 ID = 672
   7.547856 2  380             Tx   d 8 00 04 40 00 00 00 00 00  Length = 984000 BitCount = 126 ID = 896
   7.567735 2  5B2             Rx   d 2 00 00  Length = 504000 BitCount = 67 ID = 1458
   7.621655 2  2A0             Tx   d 4 00 00 00 00  Length = 680000 BitCount = 88 ID = 672
   7.667725 2  5B2             Rx   d 2 00 00  Length = 504000 BitCount = 67 ID = 1458
   7.721908 2  700             Tx   d 6 00 02 00 00 00 00  Length = 832000 BitCount = 107 ID = 1792
   7.722923 2  380             Tx   d 8 00 04 40 00 00 00 00 00  Length = 984000 BitCount = 126 ID = 896
   7.723634 2  2A0             Tx   d 4 00 00 00 00  Length = 680000 BitCount = 88 ID = 672
   7.724738 2  712             Rx   d 2 00 36  Length = 496000 BitCount = 66 ID = 1810
   7.767728 2  5B2             Rx   d 2 00 00  Length = 504000 BitCount = 67 ID = 1458
   7.769184 2  3D2             Rx   d 8 00 00 00 00 00 04 00 00  Length = 952000 BitCount = 123 ID = 978
   7.821671 2  2A0             Tx   d 4 00 00 00 00  Length = 680000 BitCount = 88 ID = 672
   7.867726 2  5B2             Rx   d 2 00 00  Length = 504000 BitCount = 67 ID = 1458
   7.921693 2  2A0             Tx   d 4 00 00 00 00  Length = 680000 BitCount = 88 ID = 672
   7.967716 2  5B2             Rx   d 2 00 00  Length = 504000 BitCount = 67 ID = 1458
   7.972100 2  380             Tx   d 8 00 04 40 00 00 00 00 00  Length = 984000 BitCount = 126 ID = 896
   8.000891 CAN 1 Status:chip status error active
   8.001018 CAN 2 Status:chip status error active
   8.021564 2  2A0             Tx   d 4 00 00 00 00  Length = 680000 BitCount = 88 ID = 672
   8.067714 2  5B2             Rx   d 2 00 00  Length = 504000 BitCount = 67 ID = 1458
   8.121866 2  2A0             Tx   d 4 00 00 00 00  Length = 680000 BitCount = 88 ID = 672
   8.167712 2  5B2             Rx   d 2 00 00  Length = 504000 BitCount = 67 ID = 1458
   8.222056 2  380             Tx   d 8 00 04 40 00 00 00 00 00  Length = 984000 BitCount = 126 ID = 896
   8.222768 2  2A0             Tx   d 4 00 00 00 00  Length = 680000 BitCount = 88 ID = 672
   8.267710 2  5B2             Rx   d 2 00 00  Length = 504000 BitCount = 67 ID = 1458
   8.269166 2  3D2             Rx   d 8 00 00 00 00 00 04 00 00  Length = 952000 BitCount = 123 ID = 978
   8.321630 2  2A0             Tx   d 4 00 00 00 00  Length = 680000 BitCount = 88 ID = 672
   8.367708 2  5B2             Rx   d 2 00 00  Length = 504000 BitCount = 67 ID = 1458
   8.421564 2  2A0             Tx   d 4 00 00 00 00  Length = 680000 BitCount = 88 ID = 672
   8.467706 2  5B2             Rx   d 2 00 00  Length = 504000 BitCount = 67 ID = 1458
   8.471938 2  380             Tx   d 8 00 04 40 00 00 00 00 00  Length = 984000 BitCount = 126 ID = 896
   8.521586 2  2A0             Tx   d 4 00 00 00 00  Length = 680000 BitCount = 88 ID = 672
   8.567704 2  5B2             Rx   d 2 00 00  Length = 504000 BitCount = 67 ID = 1458
   8.621584 2  2A0             Tx   d 4 00 00 00 00  Length = 680000 BitCount = 88 ID = 672
   8.667694 2  5B2             Rx   d 2 00 00  Length = 504000 BitCount = 67 ID = 1458
   8.722014 2  700             Tx   d 6 00 02 00 00 00 00  Length = 832000 BitCount = 107 ID = 1792
   8.723030 2  380             Tx   d 8 00 04 40 00 00 00 00 00  Length = 984000 BitCount = 126 ID = 896
   8.723741 2  2A0             Tx   d 4 00 00 00 00  Length = 680000 BitCount = 88 ID = 672
   8.724685 2  712             Rx   d 2 00 36  Length = 496000 BitCount = 66 ID = 1810
   8.767691 2  5B2             Rx   d 2 00 00  Length = 504000 BitCount = 67 ID = 1458
   8.769147 2  3D2             Rx   d 8 00 00 00 00 00 04 00 00  Length = 952000 BitCount = 123 ID = 978
   8.821770 2  2A0             Tx   d 4 00 00 00 00  Length = 680000 BitCount = 88 ID = 672
   8.867689 2  5B2             Rx   d 2 00 00  Length = 504000 BitCount = 67 ID = 1458
   8.921704 2  2A0             Tx   d 4 00 00 00 00  Length = 680000 BitCount = 88 ID = 672
   8.967687 2  5B2             Rx   d 2 00 00  Length = 504000 BitCount = 67 ID = 1458
   8.972046 2  380             Tx   d 8 00 04 40 00 00 00 00 00  Length = 984000 BitCount = 126 ID = 896
   9.001006 CAN 1 Status:chip status error active
   9.001214 CAN 2 Status:chip status error active
   9.021677 2  2A0             Tx   d 4 00 00 00 00  Length = 680000 BitCount = 88 ID = 672
   9.067684 2  5B2             Rx   d 2 00 00  Length = 504000 BitCount = 67 ID = 1458
   9.121740 2  2A0             Tx   d 4 00 00 00 00  Length = 680000 BitCount = 88 ID = 672
   9.167682 2  5B2             Rx   d 2 00 00  Length = 504000 BitCount = 67 ID = 1458
   9.222002 2  380             Tx   d 8 00 04 40 00 00 00 00 00  Length = 984000 BitCount = 126 ID = 896
   9.222714 2  2A0             Tx   d 4 00 00 00 00  Length = 680000 BitCount = 88 ID = 672
   9.267680 2  5B2             Rx   d 2 00 00  Length = 504000 BitCount = 67 ID = 1458
   9.269135 2  3D2             Rx   d 8 00 00 00 00 00 04 00 00  Length = 952000 BitCount = 123 ID = 978
   9.321575 2  2A0             Tx   d 4 00 00 00 00  Length = 680000 BitCount = 88 ID = 672
   9.367677 2  5B2             Rx   d 2 00 00  Length = 504000 BitCount = 67 ID = 1458
   9.421549 2  2A0             Tx   d 4 00 00 00 00  Length = 680000 BitCount = 88 ID = 672
   9.467675 2  5B2             Rx   d 2 00 00  Length = 504000 BitCount = 67 ID = 1458
   9.471923 2  380             Tx   d 8 00 04 40 00 00 00 00 00  Length = 984000 BitCount = 126 ID = 896
   9.521547 2  2A0             Tx   d 4 00 00 00 00  Length = 680000 BitCount = 88 ID = 672
   9.567673 2  5B2             Rx   d 2 00 00  Length = 504000 BitCount = 67 ID = 1458
   9.621545 2  2A0             Tx   d 4 00 00 00 00  Length = 680000 BitCount = 88 ID = 672
   9.667671 2  5B2             Rx   d 2 00 00  Length = 504000 BitCount = 67 ID = 1458
   9.721935 2  700             Tx   d 6 00 02 00 00 00 00  Length = 832000 BitCount = 107 ID = 1792
   9.722951 2  380             Tx   d 8 00 04 40 00 00 00 00 00  Length = 984000 BitCount = 126 ID = 896
   9.723663 2  2A0             Tx   d 4 00 00 00 00  Length = 680000 BitCount = 88 ID = 672
   9.724678 2  712             Rx   d 2 00 36  Length = 496000 BitCount = 66 ID = 1810
   9.767668 2  5B2             Rx   d 2 00 00  Length = 504000 BitCount = 67 ID = 1458
   9.769124 2  3D2             Rx   d 8 00 00 00 00 00 04 00 00  Length = 952000 BitCount = 123 ID = 978
   9.821652 2  2A0             Tx   d 4 00 00 00 00  Length = 680000 BitCount = 88 ID = 672
   9.867658 2  5B2             Rx   d 2 00 00  Length = 504000 BitCount = 67 ID = 1458
   9.921673 2  2A0             Tx   d 4 00 00 00 00  Length = 680000 BitCount = 88 ID = 672
   9.967656 2  5B2             Rx   d 2 00 00  Length = 504000 BitCount = 67 ID = 1458
   9.972079 2  380             Tx   d 8 00 04 40 00 00 00 00 00  Length = 984000 BitCount = 126 ID = 896
  10.000974 CAN 1 Status:chip status error active
  10.001140 CAN 2 Status:chip status error active
  10.021590 2  2A0             Tx   d 4 00 00 00 00  Length = 680000 BitCount = 88 ID = 672
  10.067653 2  5B2             Rx   d 2 00 00  Length = 504000 BitCount = 67 ID = 1458
  10.121708 2  2A0             Tx   d 4 00 00 00 00  Length = 680000 BitCount = 88 ID = 672
  10.167651 2  5B2             Rx   d 2 00 00  Length = 504000 BitCount = 67 ID = 1458
  10.222035 2  380             Tx   d 8 00 04 40 00 00 00 00 00  Length = 984000 BitCount = 126 ID = 896
  10.222747 2  2A0             Tx   d 4 00 00 00 00  Length = 680000 BitCount = 88 ID = 672
  10.267649 2  5B2             Rx   d 2 00 00  Length = 504000 BitCount = 67 ID = 1458
  10.269104 2  3D2             Rx   d 8 00 00 00 00 00 04 00 00  Length = 952000 BitCount = 123 ID = 978
  10.321648 2  2A0             Tx   d 4 00 00 00 00  Length = 680000 BitCount = 88 ID = 672
  10.367646 2  5B2             Rx   d 2 00 00  Length = 504000 BitCount = 67 ID = 1458
  10.421670 2  2A0             Tx   d 4 00 00 00 00  Length = 680000 BitCount = 88 ID = 672
  10.467644 2  5B2             Rx   d 2 00 00  Length = 504000 BitCount = 67 ID = 1458
  10.472188 2  380             Tx   d 8 00 04 40 00 00 00 00 00  Length = 984000 BitCount = 126 ID = 896
  10.521684 2  2A0             Tx   d 4 00 00 00 00  Length = 680000 BitCount = 88 ID = 672
  10.567642 2  5B2             Rx   d 2 00 00  Length = 504000 BitCount = 67 ID = 1458
  10.621666 2  2A0             Tx   d 4 00 00 00 00  Length = 680000 BitCount = 88 ID = 672
  10.667640 2  5B2             Rx   d 2 00 00  Length = 504000 BitCount = 67 ID = 1458
  10.721920 2  700             Tx   d 6 00 02 00 00 00 00  Length = 832000 BitCount = 107 ID = 1792
  10.722936 2  380             Tx   d 8 00 04 40 00 00 00 00 00  Length = 984000 BitCount = 126 ID = 896
  10.723648 2  2A0             Tx   d 4 00 00 00 00  Length = 680000 BitCount = 88 ID = 672
  10.724648 2  712             Rx   d 2 00 36  Length = 496000 BitCount = 66 ID = 1810
  10.767630 2  5B2             Rx   d 2 00 00  Length = 504000 BitCount = 67 ID = 1458
  10.769094 2  3D2             Rx   d 8 00 00 00 00 00 04 00 00  Length = 952000 BitCount = 123 ID = 978
  10.821726 2  2A0             Tx   d 4 00 00 00 00  Length = 680000 BitCount = 88 ID = 672
  10.867628 2  5B2             Rx   d 2 00 00  Length = 504000 BitCount = 67 ID = 1458
  10.921684 2  2A0             Tx   d 4 00 00 00 00  Length = 680000 BitCount = 88 ID = 672
  10.967626 2  5B2             Rx   d 2 00 00  Length = 504000 BitCount = 67 ID = 1458
  10.972090 2  380             Tx   d 8 00 04 40 00 00 00 00 00  Length = 984000 BitCount = 126 ID = 896
  11.001006 CAN 1 Status:chip status error active
  11.001213 CAN 2 Status:chip status error active
  11.021657 2  2A0             Tx   d 4 00 00 00 00  Length = 680000 BitCount = 88 ID = 672
  11.067624 2  5B2             Rx   d 2 00 00  Length = 504000 BitCount = 67 ID = 1458
  11.121655 2  2A0             Tx   d 4 00 00 00 00  Length = 680000 BitCount = 88 ID = 672
  11.167622 2  5B2             Rx   d 2 00 00  Length = 504000 BitCount = 67 ID = 1458
  11.222045 2  380             Tx   d 8 00 04 40 00 00 00 00 00  Length = 984000 BitCount = 126 ID = 896
  11.222757 2  2A0             Tx   d 4 00 00 00 00  Length = 680000 BitCount = 88 ID = 672
  11.267619 2  5B2             Rx   d 2 00 00  Length = 504000 BitCount = 67 ID = 1458
  11.269074 2  3D2             Rx   d 8 00 00 00 00 00 04 00 00  Length = 952000 BitCount = 123 ID = 978
  11.321738 2  2A0             Tx   d 4 00 00 00 00  Length = 680000 BitCount = 88 ID = 672
  11.367616 2  5B2             Rx   d 2 00 00  Length = 504000 BitCount = 67 ID = 1458
  11.421680 2  2A0             Tx   d 4 00 00 00 00  Length = 680000 BitCount = 88 ID = 672
  11.467614 2  5B2             Rx   d 2 00 00  Length = 504000 BitCount = 67 ID = 1458
  11.472062 2  380             Tx   d 8 00 04 40 00 00 00 00 00  Length = 984000 BitCount = 126 ID = 896
  11.521718 2  2A0             Tx   d 4 00 00 00 00  Length = 680000 BitCount = 88 ID = 672
  11.567612 2  5B2             Rx   d 2 00 00  Length = 504000 BitCount = 67 ID = 1458
  11.621652 2  2A0             Tx   d 4 00 00 00 00  Length = 680000 BitCount = 88 ID = 672
  11.667610 2  5B2             Rx   d 2 00 00  Length = 504000 BitCount = 67 ID = 1458
  11.721802 2  700             Tx   d 6 00 02 00 00 00 00  Length = 832000 BitCount = 107 ID = 1792
  11.722818 2  380             Tx   d 8 00 04 40 00 00 00 00 00  Length = 984000 BitCount = 126 ID = 896
  11.723530 2  2A0             Tx   d 4 00 00 00 00  Length = 680000 BitCount = 88 ID = 672
  11.724618 2  712             Rx   d 2 00 36  Length = 496000 BitCount = 66 ID = 1810
  11.767600 2  5B2             Rx   d 2 00 00  Length = 504000 BitCount = 67 ID = 1458
  11.769056 2  3D2             Rx   d 8 00 00 00 00 00 04 00 00  Length = 952000 BitCount = 123 ID = 978
  11.821640 2  2A0             Tx   d 4 00 00 00 00  Length = 680000 BitCount = 88 ID = 672
  11.867598 2  5B2             Rx   d 2 00 00  Length = 504000 BitCount = 67 ID = 1458
  11.921710 2  2A0             Tx   d 4 00 00 00 00  Length = 680000 BitCount = 88 ID = 672
  11.967596 2  5B2             Rx   d 2 00 00  Length = 504000 BitCount = 67 ID = 1458
  11.971804 2  380             Tx   d 8 00 04 40 00 00 00 00 00  Length = 984000 BitCount = 126 ID = 896
  12.000890 CAN 1 Status:chip status error active
  12.001061 CAN 2 Status:chip status error active
  12.021636 2  2A0             Tx   d 4 00 00 00 00  Length = 680000 BitCount = 88 ID = 672
  12.067594 2  5B2             Rx   d 2 00 00  Length = 504000 BitCount = 67 ID = 1458
  12.121753 2  2A0             Tx   d 4 00 00 00 00  Length = 680000 BitCount = 88 ID = 672
  12.167592 2  5B2             Rx   d 2 00 00  Length = 504000 BitCount = 67 ID = 1458
  12.222055 2  380             Tx   d 8 00 04 40 00 00 00 00 00  Length = 984000 BitCount = 126 ID = 896
  12.222766 2  2A0             Tx   d 4 00 00 00 00  Length = 680000 BitCount = 88 ID = 672
  12.267589 2  5B2             Rx   d 2 00 00  Length = 504000 BitCount = 67 ID = 1458
  12.269044 2  3D2             Rx   d 8 00 00 00 00 00 04 00 00  Length = 952000 BitCount = 123 ID = 978
  12.321707 2  2A0             Tx   d 4 00 00 00 00  Length = 680000 BitCount = 88 ID = 672
  12.367586 2  5B2             Rx   d 2 00 00  Length = 504000 BitCount = 67 ID = 1458
  12.421690 2  2A0             Tx   d 4 00 00 00 00  Length = 680000 BitCount = 88 ID = 672
  12.467584 2  5B2             Rx   d 2 00 00  Length = 504000 BitCount = 67 ID = 1458
  12.472016 2  380             Tx   d 8 00 04 40 00 00 00 00 00  Length = 984000 BitCount = 126 ID = 896
  12.521632 2  2A0             Tx   d 4 00 00 00 00  Length = 680000 BitCount = 88 ID = 672
  12.567582 2  5B2             Rx   d 2 00 00  Length = 504000 BitCount = 67 ID = 1458
  12.621686 2  2A0             Tx   d 4 00 00 00 00  Length = 680000 BitCount = 88 ID = 672
  12.667572 2  5B2             Rx   d 2 00 00  Length = 504000 BitCount = 67 ID = 1458
  12.722036 2  700             Tx   d 6 00 02 00 00 00 00  Length = 832000 BitCount = 107 ID = 1792
  12.723052 2  380             Tx   d 8 00 04 40 00 00 00 00 00  Length = 984000 BitCount = 126 ID = 896
  12.723764 2  2A0             Tx   d 4 00 00 00 00  Length = 680000 BitCount = 88 ID = 672
  12.724564 2  712             Rx   d 2 00 36  Length = 496000 BitCount = 66 ID = 1810
  12.767570 2  5B2             Rx   d 2 00 00  Length = 504000 BitCount = 67 ID = 1458
  12.769026 2  3D2             Rx   d 8 00 00 00 00 00 04 00 00  Length = 952000 BitCount = 123 ID = 978
  12.821626 2  2A0             Tx   d 4 00 00 00 00  Length = 680000 BitCount = 88 ID = 672
  12.867568 2  5B2             Rx   d 2 00 00  Length = 504000 BitCount = 67 ID = 1458
  12.888072 2  18DA1AF1x       Tx   d 3 02 10 60  Length = 0 BitCount = 95 ID = 416946929x  // 2  OTP(01) Atom F1->1A : SF Length:   02         [ 10 60 ]
  12.896311 2  18DAF11Ax       Rx   d 7 06 50 60 00 32 01 F4  Length = 0 BitCount = 131 ID = 417001754x  // 2  OTP(02) Atom 1A->F1 : SF Length:   06         [ 50 60 00 32 01 F4 ]
  12.898031 2  18DA1AF1x       Tx   d 3 02 10 60  Length = 0 BitCount = 95 ID = 416946929x  // 2  OTP(03) Atom F1->1A : SF Length:   02         [ 10 60 ]
  12.906303 2  18DAF11Ax       Rx   d 7 06 50 60 00 32 01 F4  Length = 0 BitCount = 131 ID = 417001754x  // 2  OTP(04) Atom 1A->F1 : SF Length:   06         [ 50 60 00 32 01 F4 ]
  12.921679 2  2A0             Tx   d 4 00 00 00 00  Length = 680000 BitCount = 88 ID = 672
  12.967565 2  5B2             Rx   d 2 00 00  Length = 504000 BitCount = 67 ID = 1458
  12.971821 2  380             Tx   d 8 00 04 40 00 00 00 00 00  Length = 984000 BitCount = 126 ID = 896
  13.001026 CAN 1 Status:chip status error active
  13.001212 CAN 2 Status:chip status error active
  13.021725 2  2A0             Tx   d 4 00 00 00 00  Length = 680000 BitCount = 88 ID = 672
  13.067563 2  5B2             Rx   d 2 00 00  Length = 504000 BitCount = 67 ID = 1458
  13.121739 2  2A0             Tx   d 4 00 00 00 00  Length = 680000 BitCount = 88 ID = 672
  13.167561 2  5B2             Rx   d 2 00 00  Length = 504000 BitCount = 67 ID = 1458
  13.222336 2  380             Tx   d 8 00 04 40 00 00 00 00 00  Length = 984000 BitCount = 126 ID = 896
  13.223047 2  2A0             Tx   d 4 00 00 00 00  Length = 680000 BitCount = 88 ID = 672
  13.267558 2  5B2             Rx   d 2 00 00  Length = 504000 BitCount = 67 ID = 1458
  13.269014 2  3D2             Rx   d 8 00 00 00 00 00 04 00 00  Length = 952000 BitCount = 123 ID = 978
  13.321717 2  2A0             Tx   d 4 00 00 00 00  Length = 680000 BitCount = 88 ID = 672
  13.367556 2  5B2             Rx   d 2 00 00  Length = 504000 BitCount = 67 ID = 1458
  13.421675 2  2A0             Tx   d 4 00 00 00 00  Length = 680000 BitCount = 88 ID = 672
  13.467554 2  5B2             Rx   d 2 00 00  Length = 504000 BitCount = 67 ID = 1458
  13.472082 2  380             Tx   d 8 00 04 40 00 00 00 00 00  Length = 984000 BitCount = 126 ID = 896
  13.521530 2  2A0             Tx   d 4 00 00 00 00  Length = 680000 BitCount = 88 ID = 672
  13.567552 2  5B2             Rx   d 2 00 00  Length = 504000 BitCount = 67 ID = 1458
  13.621672 2  2A0             Tx   d 4 00 00 00 00  Length = 680000 BitCount = 88 ID = 672
  13.667542 2  5B2             Rx   d 2 00 00  Length = 504000 BitCount = 67 ID = 1458
  13.721998 2  700             Tx   d 6 00 02 00 00 00 00  Length = 832000 BitCount = 107 ID = 1792
  13.723014 2  380             Tx   d 8 00 04 40 00 00 00 00 00  Length = 984000 BitCount = 126 ID = 896
  13.723726 2  2A0             Tx   d 4 00 00 00 00  Length = 680000 BitCount = 88 ID = 672
  13.724558 2  712             Rx   d 2 00 36  Length = 496000 BitCount = 66 ID = 1810
  13.767540 2  5B2             Rx   d 2 00 00  Length = 504000 BitCount = 67 ID = 1458
  13.768996 2  3D2             Rx   d 8 00 00 00 00 00 04 00 00  Length = 952000 BitCount = 123 ID = 978
  13.821612 2  2A0             Tx   d 4 00 00 00 00  Length = 680000 BitCount = 88 ID = 672
  13.867538 2  5B2             Rx   d 2 00 00  Length = 504000 BitCount = 67 ID = 1458
  13.921594 2  2A0             Tx   d 4 00 00 00 00  Length = 680000 BitCount = 88 ID = 672
  13.967536 2  5B2             Rx   d 2 00 00  Length = 504000 BitCount = 67 ID = 1458
  13.971896 2  380             Tx   d 8 00 04 40 00 00 00 00 00  Length = 984000 BitCount = 126 ID = 896
  14.000889 CAN 1 Status:chip status error active
  14.000999 CAN 2 Status:chip status error active
  14.021616 2  2A0             Tx   d 4 00 00 00 00  Length = 680000 BitCount = 88 ID = 672
  14.067534 2  5B2             Rx   d 2 00 00  Length = 504000 BitCount = 67 ID = 1458
  14.121686 2  2A0             Tx   d 4 00 00 00 00  Length = 680000 BitCount = 88 ID = 672
  14.167532 2  5B2             Rx   d 2 00 00  Length = 504000 BitCount = 67 ID = 1458
  14.222060 2  380             Tx   d 8 00 04 40 00 00 00 00 00  Length = 984000 BitCount = 126 ID = 896
  14.222771 2  2A0             Tx   d 4 00 00 00 00  Length = 680000 BitCount = 88 ID = 672
  14.267530 2  5B2             Rx   d 2 00 00  Length = 504000 BitCount = 67 ID = 1458
  14.268986 2  3D2             Rx   d 8 00 00 00 00 00 04 00 00  Length = 952000 BitCount = 123 ID = 978
  14.321609 2  2A0             Tx   d 4 00 00 00 00  Length = 680000 BitCount = 88 ID = 672
  14.367528 2  5B2             Rx   d 2 00 00  Length = 504000 BitCount = 67 ID = 1458
  14.421751 2  2A0             Tx   d 4 00 00 00 00  Length = 680000 BitCount = 88 ID = 672
  14.467518 2  5B2             Rx   d 2 00 00  Length = 504000 BitCount = 67 ID = 1458
  14.471965 2  380             Tx   d 8 00 04 40 00 00 00 00 00  Length = 984000 BitCount = 126 ID = 896
  14.521580 2  2A0             Tx   d 4 00 00 00 00  Length = 680000 BitCount = 88 ID = 672
  14.567515 2  5B2             Rx   d 2 00 00  Length = 504000 BitCount = 67 ID = 1458
  14.621683 2  2A0             Tx   d 4 00 00 00 00  Length = 680000 BitCount = 88 ID = 672
  14.667513 2  5B2             Rx   d 2 00 00  Length = 504000 BitCount = 67 ID = 1458
  14.721761 2  700             Tx   d 6 00 02 00 00 00 00  Length = 832000 BitCount = 107 ID = 1792
  14.722777 2  380             Tx   d 8 00 04 40 00 00 00 00 00  Length = 984000 BitCount = 126 ID = 896
  14.723489 2  2A0             Tx   d 4 00 00 00 00  Length = 680000 BitCount = 88 ID = 672
  14.724521 2  712             Rx   d 2 00 36  Length = 496000 BitCount = 66 ID = 1810
  14.767511 2  5B2             Rx   d 2 00 00  Length = 504000 BitCount = 67 ID = 1458
  14.768966 2  3D2             Rx   d 8 00 00 00 00 00 04 00 00  Length = 952000 BitCount = 123 ID = 978
  14.821630 2  2A0             Tx   d 4 00 00 00 00  Length = 680000 BitCount = 88 ID = 672
  14.867508 2  5B2             Rx   d 2 00 00  Length = 504000 BitCount = 67 ID = 1458
  14.921684 2  2A0             Tx   d 4 00 00 00 00  Length = 680000 BitCount = 88 ID = 672
  14.967506 2  5B2             Rx   d 2 00 00  Length = 504000 BitCount = 67 ID = 1458
  14.971986 2  380             Tx   d 8 00 04 40 00 00 00 00 00  Length = 984000 BitCount = 126 ID = 896
  15.001026 CAN 1 Status:chip status error active
  15.001380 CAN 2 Status:chip status error active
  15.021746 2  2A0             Tx   d 4 00 00 00 00  Length = 680000 BitCount = 88 ID = 672
  15.067504 2  5B2             Rx   d 2 00 00  Length = 504000 BitCount = 67 ID = 1458
  15.121680 2  2A0             Tx   d 4 00 00 00 00  Length = 680000 BitCount = 88 ID = 672
  15.167502 2  5B2             Rx   d 2 00 00  Length = 504000 BitCount = 67 ID = 1458
  15.221878 2  380             Tx   d 8 00 04 40 00 00 00 00 00  Length = 984000 BitCount = 126 ID = 896
  15.222598 2  2A0             Tx   d 4 00 00 00 00  Length = 680000 BitCount = 88 ID = 672
  15.267500 2  5B2             Rx   d 2 00 00  Length = 504000 BitCount = 67 ID = 1458
  15.268956 2  3D2             Rx   d 8 00 00 00 00 00 04 00 00  Length = 952000 BitCount = 123 ID = 978
  15.321644 2  2A0             Tx   d 4 00 00 00 00  Length = 680000 BitCount = 88 ID = 672
  15.367498 2  5B2             Rx   d 2 00 00  Length = 504000 BitCount = 67 ID = 1458
  15.421697 2  2A0             Tx   d 4 00 00 00 00  Length = 680000 BitCount = 88 ID = 672
  15.467488 2  5B2             Rx   d 2 00 00  Length = 504000 BitCount = 67 ID = 1458
  15.471983 2  380             Tx   d 8 00 04 40 00 00 00 00 00  Length = 984000 BitCount = 126 ID = 896
  15.521718 2  2A0             Tx   d 4 00 00 00 00  Length = 680000 BitCount = 88 ID = 672
  15.567485 2  5B2             Rx   d 2 00 00  Length = 504000 BitCount = 67 ID = 1458
  15.621676 2  2A0             Tx   d 4 00 00 00 00  Length = 680000 BitCount = 88 ID = 672
  15.667483 2  5B2             Rx   d 2 00 00  Length = 504000 BitCount = 67 ID = 1458
  15.721723 2  700             Tx   d 6 00 02 00 00 00 00  Length = 832000 BitCount = 107 ID = 1792
  15.722739 2  380             Tx   d 8 00 04 40 00 00 00 00 00  Length = 984000 BitCount = 126 ID = 896
  15.723451 2  2A0             Tx   d 4 00 00 00 00  Length = 680000 BitCount = 88 ID = 672
  15.724491 2  712             Rx   d 2 00 32  Length = 496000 BitCount = 66 ID = 1810
  15.767481 2  5B2             Rx   d 2 00 00  Length = 504000 BitCount = 67 ID = 1458
  15.768936 2  3D2             Rx   d 8 00 00 00 00 00 04 00 00  Length = 952000 BitCount = 123 ID = 978
  15.821592 2  2A0             Tx   d 4 00 00 00 00  Length = 680000 BitCount = 88 ID = 672
  15.867478 2  5B2             Rx   d 2 00 00  Length = 504000 BitCount = 67 ID = 1458
  15.921798 2  2A0             Tx   d 4 00 00 00 00  Length = 680000 BitCount = 88 ID = 672
  15.967476 2  5B2             Rx   d 2 00 00  Length = 504000 BitCount = 67 ID = 1458
  15.971916 2  380             Tx   d 8 00 04 40 00 00 00 00 00  Length = 984000 BitCount = 126 ID = 896
  16.001077 CAN 1 Status:chip status error active
  16.001284 CAN 2 Status:chip status error active
  16.021644 2  2A0             Tx   d 4 00 00 00 00  Length = 680000 BitCount = 88 ID = 672
  16.067474 2  5B2             Rx   d 2 00 00  Length = 504000 BitCount = 67 ID = 1458
  16.121610 2  2A0             Tx   d 4 00 00 00 00  Length = 680000 BitCount = 88 ID = 672
  16.167472 2  5B2             Rx   d 2 00 00  Length = 504000 BitCount = 67 ID = 1458
  16.222056 2  380             Tx   d 8 00 04 40 00 00 00 00 00  Length = 984000 BitCount = 126 ID = 896
  16.222768 2  2A0             Tx   d 4 00 00 00 00  Length = 680000 BitCount = 88 ID = 672
  16.267470 2  5B2             Rx   d 2 00 00  Length = 504000 BitCount = 67 ID = 1458
  16.268926 2  3D2             Rx   d 8 00 00 00 00 00 04 00 00  Length = 952000 BitCount = 123 ID = 978
  16.321710 2  2A0             Tx   d 4 00 00 00 00  Length = 680000 BitCount = 88 ID = 672
  16.367460 2  5B2             Rx   d 2 00 00  Length = 504000 BitCount = 67 ID = 1458
  16.421724 2  2A0             Tx   d 4 00 00 00 00  Length = 680000 BitCount = 88 ID = 672
  16.467458 2  5B2             Rx   d 2 00 00  Length = 504000 BitCount = 67 ID = 1458
  16.471985 2  380             Tx   d 8 00 04 40 00 00 00 00 00  Length = 984000 BitCount = 126 ID = 896
  16.521704 2  2A0             Tx   d 4 00 00 00 00  Length = 680000 BitCount = 88 ID = 672
  16.567455 2  5B2             Rx   d 2 00 00  Length = 504000 BitCount = 67 ID = 1458
  16.621686 2  2A0             Tx   d 4 00 00 00 00  Length = 680000 BitCount = 88 ID = 672
  16.667453 2  5B2             Rx   d 2 00 00  Length = 504000 BitCount = 67 ID = 1458
  16.721676 2  700             Tx   d 6 00 02 00 00 00 00  Length = 832000 BitCount = 107 ID = 1792
  16.722692 2  380             Tx   d 8 00 04 40 00 00 00 00 00  Length = 984000 BitCount = 126 ID = 896
  16.723404 2  2A0             Tx   d 4 00 00 00 00  Length = 680000 BitCount = 88 ID = 672
  16.724460 2  712             Rx   d 2 00 32  Length = 496000 BitCount = 66 ID = 1810
  16.767450 2  5B2             Rx   d 2 00 00  Length = 504000 BitCount = 67 ID = 1458
  16.768905 2  3D2             Rx   d 8 00 00 00 00 00 04 00 00  Length = 952000 BitCount = 123 ID = 978
  16.821521 2  2A0             Tx   d 4 00 00 00 00  Length = 680000 BitCount = 88 ID = 672
  16.867447 2  5B2             Rx   d 2 00 00  Length = 504000 BitCount = 67 ID = 1458
  16.891703 2  18DA1AF1x       Tx   d 3 02 3E 00  Length = 0 BitCount = 96 ID = 416946929x  // 2  OTP(05) Atom F1->1A : SF Length:   02         [ 3E 00 ]
  16.895895 2  18DAF11Ax       Rx   d 3 02 7E 00  Length = 0 BitCount = 95 ID = 417001754x  // 2  OTP(06) Atom 1A->F1 : SF Length:   02         [ 7E 00 ]
  16.921703 2  2A0             Tx   d 4 00 00 00 00  Length = 680000 BitCount = 88 ID = 672
  16.967445 2  5B2             Rx   d 2 00 00  Length = 504000 BitCount = 67 ID = 1458
  16.972069 2  380             Tx   d 8 00 04 40 00 00 00 00 00  Length = 984000 BitCount = 126 ID = 896
  17.001087 CAN 1 Status:chip status error active
  17.001294 CAN 2 Status:chip status error active
  17.021741 2  2A0             Tx   d 4 00 00 00 00  Length = 680000 BitCount = 88 ID = 672
  17.067443 2  5B2             Rx   d 2 00 00  Length = 504000 BitCount = 67 ID = 1458
  17.121699 2  2A0             Tx   d 4 00 00 00 00  Length = 680000 BitCount = 88 ID = 672
  17.167441 2  5B2             Rx   d 2 00 00  Length = 504000 BitCount = 67 ID = 1458
  17.222025 2  380             Tx   d 8 00 04 40 00 00 00 00 00  Length = 984000 BitCount = 126 ID = 896
  17.222737 2  2A0             Tx   d 4 00 00 00 00  Length = 680000 BitCount = 88 ID = 672
  17.267439 2  5B2             Rx   d 2 00 00  Length = 504000 BitCount = 67 ID = 1458
  17.268895 2  3D2             Rx   d 8 00 00 00 00 00 04 00 00  Length = 952000 BitCount = 123 ID = 978
  17.321679 2  2A0             Tx   d 4 00 00 00 00  Length = 680000 BitCount = 88 ID = 672
  17.367429 2  5B2             Rx   d 2 00 00  Length = 504000 BitCount = 67 ID = 1458
  17.421677 2  2A0             Tx   d 4 00 00 00 00  Length = 680000 BitCount = 88 ID = 672
  17.467427 2  5B2             Rx   d 2 00 00  Length = 504000 BitCount = 67 ID = 1458
  17.471979 2  380             Tx   d 8 00 04 40 00 00 00 00 00  Length = 984000 BitCount = 126 ID = 896
  17.521651 2  2A0             Tx   d 4 00 00 00 00  Length = 680000 BitCount = 88 ID = 672
  17.567425 2  5B2             Rx   d 2 00 00  Length = 504000 BitCount = 67 ID = 1458
  17.621736 2  2A0             Tx   d 4 00 00 00 00  Length = 680000 BitCount = 88 ID = 672
  17.667423 2  5B2             Rx   d 2 00 00  Length = 504000 BitCount = 67 ID = 1458
  17.721822 2  700             Tx   d 6 00 02 00 00 00 00  Length = 832000 BitCount = 107 ID = 1792
  17.722837 2  380             Tx   d 8 00 04 40 00 00 00 00 00  Length = 984000 BitCount = 126 ID = 896
  17.723549 2  2A0             Tx   d 4 00 00 00 00  Length = 680000 BitCount = 88 ID = 672
  17.724437 2  712             Rx   d 2 00 32  Length = 496000 BitCount = 66 ID = 1810
  17.767420 2  5B2             Rx   d 2 00 00  Length = 504000 BitCount = 67 ID = 1458
  17.768875 2  3D2             Rx   d 8 00 00 00 00 00 04 00 00  Length = 952000 BitCount = 123 ID = 978
  17.821666 2  2A0             Tx   d 4 00 00 00 00  Length = 680000 BitCount = 88 ID = 672
  17.867417 2  5B2             Rx   d 2 00 00  Length = 504000 BitCount = 67 ID = 1458
  17.921689 2  2A0             Tx   d 4 00 00 00 00  Length = 680000 BitCount = 88 ID = 672
  17.967415 2  5B2             Rx   d 2 00 00  Length = 504000 BitCount = 67 ID = 1458
  17.972015 2  380             Tx   d 8 00 04 40 00 00 00 00 00  Length = 984000 BitCount = 126 ID = 896
  18.000972 CAN 1 Status:chip status error active
  18.001117 CAN 2 Status:chip status error active
  18.021671 2  2A0             Tx   d 4 00 00 00 00  Length = 680000 BitCount = 88 ID = 672
  18.067413 2  5B2             Rx   d 2 00 00  Length = 504000 BitCount = 67 ID = 1458
  18.121709 2  2A0             Tx   d 4 00 00 00 00  Length = 680000 BitCount = 88 ID = 672
  18.167411 2  5B2             Rx   d 2 00 00  Length = 504000 BitCount = 67 ID = 1458
  18.222035 2  380             Tx   d 8 00 04 40 00 00 00 00 00  Length = 984000 BitCount = 126 ID = 896
  18.222747 2  2A0             Tx   d 4 00 00 00 00  Length = 680000 BitCount = 88 ID = 672
  18.267409 2  5B2             Rx   d 2 00 00  Length = 504000 BitCount = 67 ID = 1458
  18.268865 2  3D2             Rx   d 8 00 00 00 00 00 04 00 00  Length = 952000 BitCount = 123 ID = 978
  18.321577 2  2A0             Tx   d 4 00 00 00 00  Length = 680000 BitCount = 88 ID = 672
  18.367399 2  5B2             Rx   d 2 00 00  Length = 504000 BitCount = 67 ID = 1458
  18.421687 2  2A0             Tx   d 4 00 00 00 00  Length = 680000 BitCount = 88 ID = 672
  18.437791 2  18DA1AF1x       Tx   d 4 03 22 FD 35  Length = 0 BitCount = 101 ID = 416946929x  // 2  OTP(07) Atom F1->1A : SF Length:   03         [ 22 FD 35 ]
  18.446198 2  18DAF11Ax       Rx   d 8 07 62 FD 35 FF FF 00 00  Length = 0 BitCount = 139 ID = 417001754x  // 2  OTP(08) Atom 1A->F1 : SF Length:   07         [ 62 FD 35 FF FF 00 00 ]
  18.448102 2  18DA1AF1x       Tx   d 4 03 22 FD 35  Length = 0 BitCount = 101 ID = 416946929x  // 2  OTP(09) Atom F1->1A : SF Length:   03         [ 22 FD 35 ]
  18.456206 2  18DAF11Ax       Rx   d 8 07 62 FD 35 FF FF 00 00  Length = 0 BitCount = 139 ID = 417001754x  // 2  OTP(0A) Atom 1A->F1 : SF Length:   07         [ 62 FD 35 FF FF 00 00 ]
  18.458149 2  18DA1AF1x       Tx   d 4 03 22 FD 35  Length = 0 BitCount = 101 ID = 416946929x  // 2  OTP(0B) Atom F1->1A : SF Length:   03         [ 22 FD 35 ]
  18.466229 2  18DAF11Ax       Rx   d 8 07 62 FD 35 FF FF 00 00  Length = 0 BitCount = 139 ID = 417001754x  // 2  OTP(0C) Atom 1A->F1 : SF Length:   07         [ 62 FD 35 FF FF 00 00 ]
  18.467397 2  5B2             Rx   d 2 00 00  Length = 504000 BitCount = 67 ID = 1458
  18.468317 2  18DA1AF1x       Tx   d 4 03 22 FD 35  Length = 0 BitCount = 101 ID = 416946929x  // 2  OTP(0D) Atom F1->1A : SF Length:   03         [ 22 FD 35 ]
  18.471965 2  380             Tx   d 8 00 04 40 00 00 00 00 00  Length = 984000 BitCount = 126 ID = 896
  18.476212 2  18DAF11Ax       Rx   d 8 07 62 FD 35 FF FF 00 00  Length = 0 BitCount = 139 ID = 417001754x  // 2  OTP(0E) Atom 1A->F1 : SF Length:   07         [ 62 FD 35 FF FF 00 00 ]
  18.478043 2  18DA1AF1x       Tx   d 4 03 22 FD 35  Length = 0 BitCount = 101 ID = 416946929x  // 2  OTP(0F) Atom F1->1A : SF Length:   03         [ 22 FD 35 ]
  18.486211 2  18DAF11Ax       Rx   d 8 07 62 FD 35 FF FF 00 00  Length = 0 BitCount = 139 ID = 417001754x  // 2  OTP(10) Atom 1A->F1 : SF Length:   07         [ 62 FD 35 FF FF 00 00 ]
  18.488163 2  18DA1AF1x       Tx   d 4 03 22 FD 35  Length = 0 BitCount = 101 ID = 416946929x  // 2  OTP(11) Atom F1->1A : SF Length:   03         [ 22 FD 35 ]
  18.496202 2  18DAF11Ax       Rx   d 8 07 62 FD 35 FF FF 00 00  Length = 0 BitCount = 139 ID = 417001754x  // 2  OTP(12) Atom 1A->F1 : SF Length:   07         [ 62 FD 35 FF FF 00 00 ]
  18.497834 2  18DA1AF1x       Tx   d 4 03 22 FD 35  Length = 0 BitCount = 101 ID = 416946929x  // 2  OTP(13) Atom F1->1A : SF Length:   03         [ 22 FD 35 ]
  18.506202 2  18DAF11Ax       Rx   d 8 07 62 FD 35 FF FF 00 00  Length = 0 BitCount = 139 ID = 417001754x  // 2  OTP(14) Atom 1A->F1 : SF Length:   07         [ 62 FD 35 FF FF 00 00 ]
  18.507809 2  18DA1AF1x       Tx   d 4 03 22 FD 35  Length = 0 BitCount = 101 ID = 416946929x  // 2  OTP(15) Atom F1->1A : SF Length:   03         [ 22 FD 35 ]
  18.516201 2  18DAF11Ax       Rx   d 8 07 62 FD 35 FF FF 00 00  Length = 0 BitCount = 139 ID = 417001754x  // 2  OTP(16) Atom 1A->F1 : SF Length:   07         [ 62 FD 35 FF FF 00 00 ]
  18.517833 2  18DA1AF1x       Tx   d 4 03 22 FD 35  Length = 0 BitCount = 101 ID = 416946929x  // 2  OTP(17) Atom F1->1A : SF Length:   03         [ 22 FD 35 ]
  18.521577 2  2A0             Tx   d 4 00 00 00 00  Length = 680000 BitCount = 88 ID = 672
  18.526216 2  18DAF11Ax       Rx   d 8 07 62 FD 35 FF FF 00 00  Length = 0 BitCount = 139 ID = 417001754x  // 2  OTP(18) Atom 1A->F1 : SF Length:   07         [ 62 FD 35 FF FF 00 00 ]
  18.527712 2  18DA1AF1x       Tx   d 4 03 22 FD 35  Length = 0 BitCount = 101 ID = 416946929x  // 2  OTP(19) Atom F1->1A : SF Length:   03         [ 22 FD 35 ]
  18.536208 2  18DAF11Ax       Rx   d 8 07 62 FD 35 FF FF 00 00  Length = 0 BitCount = 139 ID = 417001754x  // 2  OTP(1A) Atom 1A->F1 : SF Length:   07         [ 62 FD 35 FF FF 00 00 ]
  18.537808 2  18DA1AF1x       Tx   d 4 03 22 FD 35  Length = 0 BitCount = 101 ID = 416946929x  // 2  OTP(1B) Atom F1->1A : SF Length:   03         [ 22 FD 35 ]
  18.546207 2  18DAF11Ax       Rx   d 8 07 62 FD 35 FF FF 00 00  Length = 0 BitCount = 139 ID = 417001754x  // 2  OTP(1C) Atom 1A->F1 : SF Length:   07         [ 62 FD 35 FF FF 00 00 ]
  18.547751 2  18DA1AF1x       Tx   d 4 03 22 FD 35  Length = 0 BitCount = 101 ID = 416946929x  // 2  OTP(1D) Atom F1->1A : SF Length:   03         [ 22 FD 35 ]
  18.556207 2  18DAF11Ax       Rx   d 8 07 62 FD 35 FF FF 00 00  Length = 0 BitCount = 139 ID = 417001754x  // 2  OTP(1E) Atom 1A->F1 : SF Length:   07         [ 62 FD 35 FF FF 00 00 ]
  18.557750 2  18DA1AF1x       Tx   d 4 03 22 FD 35  Length = 0 BitCount = 101 ID = 416946929x  // 2  OTP(1F) Atom F1->1A : SF Length:   03         [ 22 FD 35 ]
  18.566214 2  18DAF11Ax       Rx   d 8 07 62 FD 35 FF FF 00 00  Length = 0 BitCount = 139 ID = 417001754x  // 2  OTP(20) Atom 1A->F1 : SF Length:   07         [ 62 FD 35 FF FF 00 00 ]
  18.567398 2  5B2             Rx   d 2 00 00  Length = 504000 BitCount = 67 ID = 1458
  18.568214 2  18DA1AF1x       Tx   d 4 03 22 FD 35  Length = 0 BitCount = 101 ID = 416946929x  // 2  OTP(21) Atom F1->1A : SF Length:   03         [ 22 FD 35 ]
  18.576213 2  18DAF11Ax       Rx   d 8 07 62 FD 35 FF FF 00 00  Length = 0 BitCount = 139 ID = 417001754x  // 2  OTP(22) Atom 1A->F1 : SF Length:   07         [ 62 FD 35 FF FF 00 00 ]
  18.577733 2  18DA1AF1x       Tx   d 4 03 22 FD 35  Length = 0 BitCount = 101 ID = 416946929x  // 2  OTP(23) Atom F1->1A : SF Length:   03         [ 22 FD 35 ]
  18.586205 2  18DAF11Ax       Rx   d 8 07 62 FD 35 FF FF 00 00  Length = 0 BitCount = 139 ID = 417001754x  // 2  OTP(24) Atom 1A->F1 : SF Length:   07         [ 62 FD 35 FF FF 00 00 ]
  18.587933 2  18DA1AF1x       Tx   d 4 03 22 FD 35  Length = 0 BitCount = 101 ID = 416946929x  // 2  OTP(25) Atom F1->1A : SF Length:   03         [ 22 FD 35 ]
  18.596204 2  18DAF11Ax       Rx   d 8 07 62 FD 35 FF FF 00 00  Length = 0 BitCount = 139 ID = 417001754x  // 2  OTP(26) Atom 1A->F1 : SF Length:   07         [ 62 FD 35 FF FF 00 00 ]
  18.597932 2  18DA1AF1x       Tx   d 4 03 22 FD 35  Length = 0 BitCount = 101 ID = 416946929x  // 2  OTP(27) Atom F1->1A : SF Length:   03         [ 22 FD 35 ]
  18.606203 2  18DAF11Ax       Rx   d 8 07 62 FD 35 FF FF 00 00  Length = 0 BitCount = 139 ID = 417001754x  // 2  OTP(28) Atom 1A->F1 : SF Length:   07         [ 62 FD 35 FF FF 00 00 ]
  18.607826 2  18DA1AF1x       Tx   d 4 03 22 FD 35  Length = 0 BitCount = 101 ID = 416946929x  // 2  OTP(29) Atom F1->1A : SF Length:   03         [ 22 FD 35 ]
  18.616210 2  18DAF11Ax       Rx   d 8 07 62 FD 35 FF FF 00 00  Length = 0 BitCount = 139 ID = 417001754x  // 2  OTP(2A) Atom 1A->F1 : SF Length:   07         [ 62 FD 35 FF FF 00 00 ]
  18.618122 2  18DA1AF1x       Tx   d 4 03 22 FD 35  Length = 0 BitCount = 101 ID = 416946929x  // 2  OTP(2B) Atom F1->1A : SF Length:   03         [ 22 FD 35 ]
  18.621722 2  2A0             Tx   d 4 00 00 00 00  Length = 680000 BitCount = 88 ID = 672
  18.626201 2  18DAF11Ax       Rx   d 8 07 62 FD 35 FF FF 00 00  Length = 0 BitCount = 139 ID = 417001754x  // 2  OTP(2C) Atom 1A->F1 : SF Length:   07         [ 62 FD 35 FF FF 00 00 ]
  18.628169 2  18DA1AF1x       Tx   d 4 03 22 FD 35  Length = 0 BitCount = 101 ID = 416946929x  // 2  OTP(2D) Atom F1->1A : SF Length:   03         [ 22 FD 35 ]
  18.636209 2  18DAF11Ax       Rx   d 8 07 62 FD 35 FF FF 00 00  Length = 0 BitCount = 139 ID = 417001754x  // 2  OTP(2E) Atom 1A->F1 : SF Length:   07         [ 62 FD 35 FF FF 00 00 ]
  18.637985 2  18DA1AF1x       Tx   d 4 03 22 FD 35  Length = 0 BitCount = 101 ID = 416946929x  // 2  OTP(2F) Atom F1->1A : SF Length:   03         [ 22 FD 35 ]
  18.646208 2  18DAF11Ax       Rx   d 8 07 62 FD 35 FF FF 00 00  Length = 0 BitCount = 139 ID = 417001754x  // 2  OTP(30) Atom 1A->F1 : SF Length:   07         [ 62 FD 35 FF FF 00 00 ]
  18.647960 2  18DA1AF1x       Tx   d 4 03 22 FD 35  Length = 0 BitCount = 101 ID = 416946929x  // 2  OTP(31) Atom F1->1A : SF Length:   03         [ 22 FD 35 ]
  18.656207 2  18DAF11Ax       Rx   d 8 07 62 FD 35 FF FF 00 00  Length = 0 BitCount = 139 ID = 417001754x  // 2  OTP(32) Atom 1A->F1 : SF Length:   07         [ 62 FD 35 FF FF 00 00 ]
  18.658214 2  18DA1AF1x       Tx   d 4 03 22 FD 35  Length = 0 BitCount = 101 ID = 416946929x  // 2  OTP(33) Atom F1->1A : SF Length:   03         [ 22 FD 35 ]
  18.666214 2  18DAF11Ax       Rx   d 8 07 62 FD 35 FF FF 00 00  Length = 0 BitCount = 139 ID = 417001754x  // 2  OTP(34) Atom 1A->F1 : SF Length:   07         [ 62 FD 35 FF FF 00 00 ]
  18.667390 2  5B2             Rx   d 2 00 00  Length = 504000 BitCount = 67 ID = 1458
  18.668206 2  18DA1AF1x       Tx   d 4 03 22 FD 35  Length = 0 BitCount = 101 ID = 416946929x  // 2  OTP(35) Atom F1->1A : SF Length:   03         [ 22 FD 35 ]
  18.676189 2  18DAF11Ax       Rx   d 8 07 62 FD 35 FF FF 00 00  Length = 0 BitCount = 139 ID = 417001754x  // 2  OTP(36) Atom 1A->F1 : SF Length:   07         [ 62 FD 35 FF FF 00 00 ]
  18.677909 2  18DA1AF1x       Tx   d 4 03 22 FD 35  Length = 0 BitCount = 101 ID = 416946929x  // 2  OTP(37) Atom F1->1A : SF Length:   03         [ 22 FD 35 ]
  18.686197 2  18DAF11Ax       Rx   d 8 07 62 FD 35 FF FF 00 00  Length = 0 BitCount = 139 ID = 417001754x  // 2  OTP(38) Atom 1A->F1 : SF Length:   07         [ 62 FD 35 FF FF 00 00 ]
  18.687908 2  18DA1AF1x       Tx   d 4 03 22 FD 35  Length = 0 BitCount = 101 ID = 416946929x  // 2  OTP(39) Atom F1->1A : SF Length:   03         [ 22 FD 35 ]
  18.696212 2  18DAF11Ax       Rx   d 8 07 62 FD 35 FF FF 00 00  Length = 0 BitCount = 139 ID = 417001754x  // 2  OTP(3A) Atom 1A->F1 : SF Length:   07         [ 62 FD 35 FF FF 00 00 ]
  18.698164 2  18DA1AF1x       Tx   d 4 03 22 FD 35  Length = 0 BitCount = 101 ID = 416946929x  // 2  OTP(3B) Atom F1->1A : SF Length:   03         [ 22 FD 35 ]
  18.706219 2  18DAF11Ax       Rx   d 8 07 62 FD 35 FF FF 00 00  Length = 0 BitCount = 139 ID = 417001754x  // 2  OTP(3C) Atom 1A->F1 : SF Length:   07         [ 62 FD 35 FF FF 00 00 ]
  18.708147 2  18DA1AF1x       Tx   d 4 03 22 FD 35  Length = 0 BitCount = 101 ID = 416946929x  // 2  OTP(3D) Atom F1->1A : SF Length:   03         [ 22 FD 35 ]
  18.716211 2  18DAF11Ax       Rx   d 8 07 62 FD 35 FF FF 00 00  Length = 0 BitCount = 139 ID = 417001754x  // 2  OTP(3E) Atom 1A->F1 : SF Length:   07         [ 62 FD 35 FF FF 00 00 ]
  18.718187 2  18DA1AF1x       Tx   d 4 03 22 FD 35  Length = 0 BitCount = 101 ID = 416946929x  // 2  OTP(3F) Atom F1->1A : SF Length:   03         [ 22 FD 35 ]
  18.721834 2  700             Tx   d 6 00 02 00 00 00 00  Length = 832000 BitCount = 107 ID = 1792
  18.722849 2  380             Tx   d 8 00 04 40 00 00 00 00 00  Length = 984000 BitCount = 126 ID = 896
  18.723560 2  2A0             Tx   d 4 00 00 00 00  Length = 680000 BitCount = 88 ID = 672
  18.724400 2  712             Rx   d 2 00 32  Length = 496000 BitCount = 66 ID = 1810
  18.726191 2  18DAF11Ax       Rx   d 8 07 62 FD 35 FF FF 00 00  Length = 0 BitCount = 139 ID = 417001754x  // 2  OTP(40) Atom 1A->F1 : SF Length:   07         [ 62 FD 35 FF FF 00 00 ]
  18.728039 2  18DA1AF1x       Tx   d 4 03 22 FD 35  Length = 0 BitCount = 101 ID = 416946929x  // 2  OTP(41) Atom F1->1A : SF Length:   03         [ 22 FD 35 ]
  18.736191 2  18DAF11Ax       Rx   d 8 07 62 FD 35 FF FF 00 00  Length = 0 BitCount = 139 ID = 417001754x  // 2  OTP(42) Atom 1A->F1 : SF Length:   07         [ 62 FD 35 FF FF 00 00 ]
  18.738270 2  18DA1AF1x       Tx   d 4 03 22 FD 35  Length = 0 BitCount = 101 ID = 416946929x  // 2  OTP(43) Atom F1->1A : SF Length:   03         [ 22 FD 35 ]
  18.746190 2  18DAF11Ax       Rx   d 8 07 62 FD 35 FF FF 00 00  Length = 0 BitCount = 139 ID = 417001754x  // 2  OTP(44) Atom 1A->F1 : SF Length:   07         [ 62 FD 35 FF FF 00 00 ]
  18.748126 2  18DA1AF1x       Tx   d 4 03 22 FD 35  Length = 0 BitCount = 101 ID = 416946929x  // 2  OTP(45) Atom F1->1A : SF Length:   03         [ 22 FD 35 ]
  18.756205 2  18DAF11Ax       Rx   d 8 07 62 FD 35 FF FF 00 00  Length = 0 BitCount = 139 ID = 417001754x  // 2  OTP(46) Atom 1A->F1 : SF Length:   07         [ 62 FD 35 FF FF 00 00 ]
  18.758165 2  18DA1AF1x       Tx   d 4 03 22 FD 35  Length = 0 BitCount = 101 ID = 416946929x  // 2  OTP(47) Atom F1->1A : SF Length:   03         [ 22 FD 35 ]
  18.766205 2  18DAF11Ax       Rx   d 8 07 62 FD 35 FF FF 00 00  Length = 0 BitCount = 139 ID = 417001754x  // 2  OTP(48) Atom 1A->F1 : SF Length:   07         [ 62 FD 35 FF FF 00 00 ]
  18.767389 2  5B2             Rx   d 2 00 00  Length = 504000 BitCount = 67 ID = 1458
  18.768205 2  18DA1AF1x       Tx   d 4 03 22 FD 35  Length = 0 BitCount = 101 ID = 416946929x  // 2  OTP(49) Atom F1->1A : SF Length:   03         [ 22 FD 35 ]
  18.769181 2  3D2             Rx   d 8 00 00 00 00 00 04 00 00  Length = 952000 BitCount = 123 ID = 978
  18.776188 2  18DAF11Ax       Rx   d 8 07 62 FD 35 FF FF 00 00  Length = 0 BitCount = 139 ID = 417001754x  // 2  OTP(4A) Atom 1A->F1 : SF Length:   07         [ 62 FD 35 FF FF 00 00 ]
  18.778100 2  18DA1AF1x       Tx   d 4 03 22 FD 35  Length = 0 BitCount = 101 ID = 416946929x  // 2  OTP(4B) Atom F1->1A : SF Length:   03         [ 22 FD 35 ]
  18.786195 2  18DAF11Ax       Rx   d 8 07 62 FD 35 FF FF 00 00  Length = 0 BitCount = 139 ID = 417001754x  // 2  OTP(4C) Atom 1A->F1 : SF Length:   07         [ 62 FD 35 FF FF 00 00 ]
  18.788082 2  18DA1AF1x       Tx   d 4 03 22 FD 35  Length = 0 BitCount = 101 ID = 416946929x  // 2  OTP(4D) Atom F1->1A : SF Length:   03         [ 22 FD 35 ]
  18.796202 2  18DAF11Ax       Rx   d 8 07 62 FD 35 FF FF 00 00  Length = 0 BitCount = 139 ID = 417001754x  // 2  OTP(4E) Atom 1A->F1 : SF Length:   07         [ 62 FD 35 FF FF 00 00 ]
  18.798034 2  18DA1AF1x       Tx   d 4 03 22 FD 35  Length = 0 BitCount = 101 ID = 416946929x  // 2  OTP(4F) Atom F1->1A : SF Length:   03         [ 22 FD 35 ]
  18.806193 2  18DAF11Ax       Rx   d 8 07 62 FD 35 FF FF 00 00  Length = 0 BitCount = 139 ID = 417001754x  // 2  OTP(50) Atom 1A->F1 : SF Length:   07         [ 62 FD 35 FF FF 00 00 ]
  18.808001 2  18DA1AF1x       Tx   d 4 03 22 FD 35  Length = 0 BitCount = 101 ID = 416946929x  // 2  OTP(51) Atom F1->1A : SF Length:   03         [ 22 FD 35 ]
  18.816201 2  18DAF11Ax       Rx   d 8 07 62 FD 35 FF FF 00 00  Length = 0 BitCount = 139 ID = 417001754x  // 2  OTP(52) Atom 1A->F1 : SF Length:   07         [ 62 FD 35 FF FF 00 00 ]
  18.817977 2  18DA1AF1x       Tx   d 4 03 22 FD 35  Length = 0 BitCount = 101 ID = 416946929x  // 2  OTP(53) Atom F1->1A : SF Length:   03         [ 22 FD 35 ]
  18.821624 2  2A0             Tx   d 4 00 00 00 00  Length = 680000 BitCount = 88 ID = 672
  18.826192 2  18DAF11Ax       Rx   d 8 07 62 FD 35 FF FF 00 00  Length = 0 BitCount = 139 ID = 417001754x  // 2  OTP(54) Atom 1A->F1 : SF Length:   07         [ 62 FD 35 FF FF 00 00 ]
  18.827888 2  18DA1AF1x       Tx   d 4 03 22 FD 35  Length = 0 BitCount = 101 ID = 416946929x  // 2  OTP(55) Atom F1->1A : SF Length:   03         [ 22 FD 35 ]
  18.836207 2  18DAF11Ax       Rx   d 8 07 62 FD 35 FF FF 00 00  Length = 0 BitCount = 139 ID = 417001754x  // 2  OTP(56) Atom 1A->F1 : SF Length:   07         [ 62 FD 35 FF FF 00 00 ]
  18.837934 2  18DA1AF1x       Tx   d 4 03 22 FD 35  Length = 0 BitCount = 101 ID = 416946929x  // 2  OTP(57) Atom F1->1A : SF Length:   03         [ 22 FD 35 ]
  18.846206 2  18DAF11Ax       Rx   d 8 07 62 FD 35 FF FF 00 00  Length = 0 BitCount = 139 ID = 417001754x  // 2  OTP(58) Atom 1A->F1 : SF Length:   07         [ 62 FD 35 FF FF 00 00 ]
  18.847886 2  18DA1AF1x       Tx   d 4 03 22 FD 35  Length = 0 BitCount = 101 ID = 416946929x  // 2  OTP(59) Atom F1->1A : SF Length:   03         [ 22 FD 35 ]
  18.856181 2  18DAF11Ax       Rx   d 8 07 62 FD 35 FF FF 00 00  Length = 0 BitCount = 139 ID = 417001754x  // 2  OTP(5A) Atom 1A->F1 : SF Length:   07         [ 62 FD 35 FF FF 00 00 ]
  18.857845 2  18DA1AF1x       Tx   d 4 03 22 FD 35  Length = 0 BitCount = 101 ID = 416946929x  // 2  OTP(5B) Atom F1->1A : SF Length:   03         [ 22 FD 35 ]
  18.866205 2  18DAF11Ax       Rx   d 8 07 62 FD 35 FF FF 00 00  Length = 0 BitCount = 139 ID = 417001754x  // 2  OTP(5C) Atom 1A->F1 : SF Length:   07         [ 62 FD 35 FF FF 00 00 ]
  18.867389 2  5B2             Rx   d 2 00 00  Length = 504000 BitCount = 67 ID = 1458
  18.868205 2  18DA1AF1x       Tx   d 4 03 22 FD 35  Length = 0 BitCount = 101 ID = 416946929x  // 2  OTP(5D) Atom F1->1A : SF Length:   03         [ 22 FD 35 ]
  18.876204 2  18DAF11Ax       Rx   d 8 07 62 FD 35 FF FF 00 00  Length = 0 BitCount = 139 ID = 417001754x  // 2  OTP(5E) Atom 1A->F1 : SF Length:   07         [ 62 FD 35 FF FF 00 00 ]
  18.877804 2  18DA1AF1x       Tx   d 4 03 22 FD 35  Length = 0 BitCount = 101 ID = 416946929x  // 2  OTP(5F) Atom F1->1A : SF Length:   03         [ 22 FD 35 ]
  18.886203 2  18DAF11Ax       Rx   d 8 07 62 FD 35 FF FF 00 00  Length = 0 BitCount = 139 ID = 417001754x  // 2  OTP(60) Atom 1A->F1 : SF Length:   07         [ 62 FD 35 FF FF 00 00 ]
  18.887906 2  18DA1AF1x       Tx   d 4 03 22 FD 35  Length = 0 BitCount = 101 ID = 416946929x  // 2  OTP(61) Atom F1->1A : SF Length:   03         [ 22 FD 35 ]
  18.896178 2  18DAF11Ax       Rx   d 8 07 62 FD 35 FF FF 00 00  Length = 0 BitCount = 139 ID = 417001754x  // 2  OTP(62) Atom 1A->F1 : SF Length:   07         [ 62 FD 35 FF FF 00 00 ]
  18.898098 2  18DA1AF1x       Tx   d 4 03 22 FD 35  Length = 0 BitCount = 101 ID = 416946929x  // 2  OTP(63) Atom F1->1A : SF Length:   03         [ 22 FD 35 ]
  18.906201 2  18DAF11Ax       Rx   d 8 07 62 FD 35 FF FF 00 00  Length = 0 BitCount = 139 ID = 417001754x  // 2  OTP(00) Atom 1A->F1 : SF Length:   07         [ 62 FD 35 FF FF 00 00 ]
  18.907825 2  18DA1AF1x       Tx   d 4 03 22 FD 35  Length = 0 BitCount = 101 ID = 416946929x  // 2  OTP(01) Atom F1->1A : SF Length:   03         [ 22 FD 35 ]
  18.916201 2  18DAF11Ax       Rx   d 8 07 62 FD 35 FF FF 00 00  Length = 0 BitCount = 139 ID = 417001754x  // 2  OTP(02) Atom 1A->F1 : SF Length:   07         [ 62 FD 35 FF FF 00 00 ]
  18.918144 2  18DA1AF1x       Tx   d 4 03 22 FD 35  Length = 0 BitCount = 101 ID = 416946929x  // 2  OTP(03) Atom F1->1A : SF Length:   03         [ 22 FD 35 ]
  18.921784 2  2A0             Tx   d 4 00 00 00 00  Length = 680000 BitCount = 88 ID = 672
  18.926184 2  18DAF11Ax       Rx   d 8 07 62 FD 35 FF FF 00 00  Length = 0 BitCount = 139 ID = 417001754x  // 2  OTP(04) Atom 1A->F1 : SF Length:   07         [ 62 FD 35 FF FF 00 00 ]
  18.928184 2  18DA1AF1x       Tx   d 4 03 22 FD 35  Length = 0 BitCount = 101 ID = 416946929x  // 2  OTP(05) Atom F1->1A : SF Length:   03         [ 22 FD 35 ]
  18.936183 2  18DAF11Ax       Rx   d 8 07 62 FD 35 FF FF 00 00  Length = 0 BitCount = 139 ID = 417001754x  // 2  OTP(06) Atom 1A->F1 : SF Length:   07         [ 62 FD 35 FF FF 00 00 ]
  18.938143 2  18DA1AF1x       Tx   d 4 03 22 FD 35  Length = 0 BitCount = 101 ID = 416946929x  // 2  OTP(07) Atom F1->1A : SF Length:   03         [ 22 FD 35 ]
  18.946215 2  18DAF11Ax       Rx   d 8 07 62 FD 35 FF FF 00 00  Length = 0 BitCount = 139 ID = 417001754x  // 2  OTP(08) Atom 1A->F1 : SF Length:   07         [ 62 FD 35 FF FF 00 00 ]
  18.947927 2  18DA1AF1x       Tx   d 4 03 22 FD 35  Length = 0 BitCount = 101 ID = 416946929x  // 2  OTP(09) Atom F1->1A : SF Length:   03         [ 22 FD 35 ]
  18.956182 2  18DAF11Ax       Rx   d 8 07 62 FD 35 FF FF 00 00  Length = 0 BitCount = 139 ID = 417001754x  // 2  OTP(0A) Atom 1A->F1 : SF Length:   07         [ 62 FD 35 FF FF 00 00 ]
  18.957934 2  18DA1AF1x       Tx   d 4 03 22 FD 35  Length = 0 BitCount = 101 ID = 416946929x  // 2  OTP(0B) Atom F1->1A : SF Length:   03         [ 22 FD 35 ]
  18.966198 2  18DAF11Ax       Rx   d 8 07 62 FD 35 FF FF 00 00  Length = 0 BitCount = 139 ID = 417001754x  // 2  OTP(0C) Atom 1A->F1 : SF Length:   07         [ 62 FD 35 FF FF 00 00 ]
  18.967381 2  5B2             Rx   d 2 00 00  Length = 504000 BitCount = 67 ID = 1458
  18.968196 2  18DA1AF1x       Tx   d 4 03 22 FD 35  Length = 0 BitCount = 101 ID = 416946929x  // 2  OTP(0D) Atom F1->1A : SF Length:   03         [ 22 FD 35 ]
  18.971876 2  380             Tx   d 8 00 04 40 00 00 00 00 00  Length = 984000 BitCount = 126 ID = 896
  18.976188 2  18DAF11Ax       Rx   d 8 07 62 FD 35 FF FF 00 00  Length = 0 BitCount = 139 ID = 417001754x  // 2  OTP(0E) Atom 1A->F1 : SF Length:   07         [ 62 FD 35 FF FF 00 00 ]
  18.977932 2  18DA1AF1x       Tx   d 4 03 22 FD 35  Length = 0 BitCount = 101 ID = 416946929x  // 2  OTP(0F) Atom F1->1A : SF Length:   03         [ 22 FD 35 ]
  18.986195 2  18DAF11Ax       Rx   d 8 07 62 FD 35 FF FF 00 00  Length = 0 BitCount = 139 ID = 417001754x  // 2  OTP(10) Atom 1A->F1 : SF Length:   07         [ 62 FD 35 FF FF 00 00 ]
  18.988179 2  18DA1AF1x       Tx   d 4 03 22 FD 35  Length = 0 BitCount = 101 ID = 416946929x  // 2  OTP(11) Atom F1->1A : SF Length:   03         [ 22 FD 35 ]
  18.996203 2  18DAF11Ax       Rx   d 8 07 62 FD 35 FF FF 00 00  Length = 0 BitCount = 139 ID = 417001754x  // 2  OTP(12) Atom 1A->F1 : SF Length:   07         [ 62 FD 35 FF FF 00 00 ]
  18.998331 2  18DA1AF1x       Tx   d 4 03 22 FD 35  Length = 0 BitCount = 101 ID = 416946929x  // 2  OTP(13) Atom F1->1A : SF Length:   03         [ 22 FD 35 ]
  19.000982 CAN 1 Status:chip status error active
  19.001176 CAN 2 Status:chip status error active
  19.006202 2  18DAF11Ax       Rx   d 8 07 62 FD 35 FF FF 00 00  Length = 0 BitCount = 139 ID = 417001754x  // 2  OTP(14) Atom 1A->F1 : SF Length:   07         [ 62 FD 35 FF FF 00 00 ]
  19.008426 2  18DA1AF1x       Tx   d 4 03 22 FD 35  Length = 0 BitCount = 101 ID = 416946929x  // 2  OTP(15) Atom F1->1A : SF Length:   03         [ 22 FD 35 ]
  19.016177 2  18DAF11Ax       Rx   d 8 07 62 FD 35 FF FF 00 00  Length = 0 BitCount = 139 ID = 417001754x  // 2  OTP(16) Atom 1A->F1 : SF Length:   07         [ 62 FD 35 FF FF 00 00 ]
  19.018096 2  18DA1AF1x       Tx   d 4 03 22 FD 35  Length = 0 BitCount = 101 ID = 416946929x  // 2  OTP(17) Atom F1->1A : SF Length:   03         [ 22 FD 35 ]
  19.021680 2  2A0             Tx   d 4 00 00 00 00  Length = 680000 BitCount = 88 ID = 672
  19.026192 2  18DAF11Ax       Rx   d 8 07 62 FD 35 FF FF 00 00  Length = 0 BitCount = 139 ID = 417001754x  // 2  OTP(18) Atom 1A->F1 : SF Length:   07         [ 62 FD 35 FF FF 00 00 ]
  19.028056 2  18DA1AF1x       Tx   d 4 03 22 FD 35  Length = 0 BitCount = 101 ID = 416946929x  // 2  OTP(19) Atom F1->1A : SF Length:   03         [ 22 FD 35 ]
  19.036183 2  18DAF11Ax       Rx   d 8 07 62 FD 35 FF FF 00 00  Length = 0 BitCount = 139 ID = 417001754x  // 2  OTP(1A) Atom 1A->F1 : SF Length:   07         [ 62 FD 35 FF FF 00 00 ]
  19.038143 2  18DA1AF1x       Tx   d 4 03 22 FD 35  Length = 0 BitCount = 101 ID = 416946929x  // 2  OTP(1B) Atom F1->1A : SF Length:   03         [ 22 FD 35 ]
  19.046175 2  18DAF11Ax       Rx   d 8 07 62 FD 35 FF FF 00 00  Length = 0 BitCount = 139 ID = 417001754x  // 2  OTP(1C) Atom 1A->F1 : SF Length:   07         [ 62 FD 35 FF FF 00 00 ]
  19.047999 2  18DA1AF1x       Tx   d 4 03 22 FD 35  Length = 0 BitCount = 101 ID = 416946929x  // 2  OTP(1D) Atom F1->1A : SF Length:   03         [ 22 FD 35 ]
  19.056190 2  18DAF11Ax       Rx   d 8 07 62 FD 35 FF FF 00 00  Length = 0 BitCount = 139 ID = 417001754x  // 2  OTP(1E) Atom 1A->F1 : SF Length:   07         [ 62 FD 35 FF FF 00 00 ]
  19.057846 2  18DA1AF1x       Tx   d 4 03 22 FD 35  Length = 0 BitCount = 101 ID = 416946929x  // 2  OTP(1F) Atom F1->1A : SF Length:   03         [ 22 FD 35 ]
  19.066181 2  18DAF11Ax       Rx   d 8 07 62 FD 35 FF FF 00 00  Length = 0 BitCount = 139 ID = 417001754x  // 2  OTP(20) Atom 1A->F1 : SF Length:   07         [ 62 FD 35 FF FF 00 00 ]
  19.067380 2  5B2             Rx   d 2 00 00  Length = 504000 BitCount = 67 ID = 1458
  19.068195 2  18DA1AF1x       Tx   d 4 03 22 FD 35  Length = 0 BitCount = 101 ID = 416946929x  // 2  OTP(21) Atom F1->1A : SF Length:   03         [ 22 FD 35 ]
  19.076187 2  18DAF11Ax       Rx   d 8 07 62 FD 35 FF FF 00 00  Length = 0 BitCount = 139 ID = 417001754x  // 2  OTP(22) Atom 1A->F1 : SF Length:   07         [ 62 FD 35 FF FF 00 00 ]
  19.077891 2  18DA1AF1x       Tx   d 4 03 22 FD 35  Length = 0 BitCount = 101 ID = 416946929x  // 2  OTP(23) Atom F1->1A : SF Length:   03         [ 22 FD 35 ]
  19.086194 2  18DAF11Ax       Rx   d 8 07 62 FD 35 FF FF 00 00  Length = 0 BitCount = 139 ID = 417001754x  // 2  OTP(24) Atom 1A->F1 : SF Length:   07         [ 62 FD 35 FF FF 00 00 ]
  19.087786 2  18DA1AF1x       Tx   d 4 03 22 FD 35  Length = 0 BitCount = 101 ID = 416946929x  // 2  OTP(25) Atom F1->1A : SF Length:   03         [ 22 FD 35 ]
  19.096186 2  18DAF11Ax       Rx   d 8 07 62 FD 35 FF FF 00 00  Length = 0 BitCount = 139 ID = 417001754x  // 2  OTP(26) Atom 1A->F1 : SF Length:   07         [ 62 FD 35 FF FF 00 00 ]
  19.097842 2  18DA1AF1x       Tx   d 4 03 22 FD 35  Length = 0 BitCount = 101 ID = 416946929x  // 2  OTP(27) Atom F1->1A : SF Length:   03         [ 22 FD 35 ]
  19.106185 2  18DAF11Ax       Rx   d 8 07 62 FD 35 FF FF 00 00  Length = 0 BitCount = 139 ID = 417001754x  // 2  OTP(28) Atom 1A->F1 : SF Length:   07         [ 62 FD 35 FF FF 00 00 ]
  19.107801 2  18DA1AF1x       Tx   d 4 03 22 FD 35  Length = 0 BitCount = 101 ID = 416946929x  // 2  OTP(29) Atom F1->1A : SF Length:   03         [ 22 FD 35 ]
  19.116184 2  18DAF11Ax       Rx   d 8 07 62 FD 35 FF FF 00 00  Length = 0 BitCount = 139 ID = 417001754x  // 2  OTP(2A) Atom 1A->F1 : SF Length:   07         [ 62 FD 35 FF FF 00 00 ]
  19.117823 2  18DA1AF1x       Tx   d 4 03 22 FD 35  Length = 0 BitCount = 101 ID = 416946929x  // 2  OTP(2B) Atom F1->1A : SF Length:   03         [ 22 FD 35 ]
  19.121599 2  2A0             Tx   d 4 00 00 00 00  Length = 680000 BitCount = 88 ID = 672
  19.126191 2  18DAF11Ax       Rx   d 8 07 62 FD 35 FF FF 00 00  Length = 0 BitCount = 139 ID = 417001754x  // 2  OTP(2C) Atom 1A->F1 : SF Length:   07         [ 62 FD 35 FF FF 00 00 ]
  19.127847 2  18DA1AF1x       Tx   d 4 03 22 FD 35  Length = 0 BitCount = 101 ID = 416946929x  // 2  OTP(2D) Atom F1->1A : SF Length:   03         [ 22 FD 35 ]
  19.136190 2  18DAF11Ax       Rx   d 8 07 62 FD 35 FF FF 00 00  Length = 0 BitCount = 139 ID = 417001754x  // 2  OTP(2E) Atom 1A->F1 : SF Length:   07         [ 62 FD 35 FF FF 00 00 ]
  19.137846 2  18DA1AF1x       Tx   d 4 03 22 FD 35  Length = 0 BitCount = 101 ID = 416946929x  // 2  OTP(2F) Atom F1->1A : SF Length:   03         [ 22 FD 35 ]
  19.146174 2  18DAF11Ax       Rx   d 8 07 62 FD 35 FF FF 00 00  Length = 0 BitCount = 139 ID = 417001754x  // 2  OTP(30) Atom 1A->F1 : SF Length:   07         [ 62 FD 35 FF FF 00 00 ]
  19.147821 2  18DA1AF1x       Tx   d 4 03 22 FD 35  Length = 0 BitCount = 101 ID = 416946929x  // 2  OTP(31) Atom F1->1A : SF Length:   03         [ 22 FD 35 ]
